;$FILEVERSION=1.1
;$STARTTIME=44246.3938575579
;
;   Start time: 19/02/2021 09:27:09.293.0
;   Generated by PCAN-View v4.3.0.596
;
;   Message Number
;   |         Time Offset (ms)
;   |         |        Type
;   |         |        |        ID (hex)
;   |         |        |        |     Data Length
;   |         |        |        |     |   Data Bytes (hex) ...
;   |         |        |        |     |   |
;---+--   ----+----  --+--  ----+---  +  -+ -- -- -- -- -- -- --
     1)         6.1  Rx         0050  8  00 80 00 00 00 00 90 BF 
     2)         6.3  Rx         0174  8  E0 7F 00 00 00 00 90 63 
     3)        19.1  Rx         0100  8  08 00 1E 01 A0 43 C6 08 
     4)        26.1  Rx         0050  8  00 80 00 00 00 00 A0 C0 
     5)        26.4  Rx         0174  8  E0 7F 00 00 00 00 A0 51 
     6)        28.9  Rx         0200  8  C0 FF FF FF FF FF C7 1C 
     7)        29.2  Rx         0201  8  80 81 00 FF 00 00 C0 DE 
     8)        29.4  Rx         0202  8  C1 FF FF FF FF FF C7 41 
     9)        29.7  Rx         0203  8  81 81 00 FF 00 00 C0 83 
    10)        29.9  Rx         0204  8  C2 FF FF FF FF FF C7 A6 
    11)        30.2  Rx         0205  8  82 81 00 FF 00 00 C0 64 
    12)        30.4  Rx         0206  8  C3 FF FF FF FF FF C7 FB 
    13)        30.7  Rx         0207  8  83 81 00 FF 00 00 C0 39 
    14)        30.9  Rx         0208  8  C4 FF FF FF FF FF C7 75 
    15)        31.1  Rx         0209  8  84 81 00 FF 00 00 C0 B7 
    16)        31.4  Rx         020A  8  C5 FF FF FF FF FF C7 28 
    17)        31.6  Rx         020B  8  85 81 00 FF 00 00 C0 EA 
    18)        31.9  Rx         020C  8  C6 FF FF FF FF FF C7 CF 
    19)        32.1  Rx         020D  8  86 81 00 FF 00 00 C0 0D 
    20)        32.4  Rx         020E  8  C7 FF FF FF FF FF C7 92 
    21)        32.6  Rx         020F  8  87 81 00 FF 00 00 C0 50 
    22)        32.9  Rx         0210  8  C8 FF FF FF FF FF C7 CE 
    23)        33.1  Rx         0211  8  88 81 00 FF 00 00 C0 0C 
    24)        33.4  Rx         0212  8  C9 FF FF FF FF FF C7 93 
    25)        33.6  Rx         0213  8  89 81 00 FF 00 00 C0 51 
    26)        33.8  Rx         0214  8  CA FF FF FF FF FF C7 74 
    27)        34.1  Rx         0215  8  8A 81 00 FF 00 00 C0 B6 
    28)        34.3  Rx         0216  8  CB FF FF FF FF FF C7 29 
    29)        34.5  Rx         0217  8  8B 81 00 FF 00 00 C0 EB 
    30)        34.8  Rx         0218  8  CC FF FF FF FF FF C7 A7 
    31)        35.0  Rx         0219  8  8C 81 00 FF 00 00 C0 65 
    32)        35.2  Rx         021A  8  CD FF FF FF FF FF C7 FA 
    33)        35.5  Rx         021B  8  8D 81 00 FF 00 00 C0 38 
    34)        35.8  Rx         021C  8  CE FF FF FF FF FF C7 1D 
    35)        36.0  Rx         021D  8  8E 81 00 FF 00 00 C0 DF 
    36)        36.2  Rx         021E  8  CF FF FF FF FF FF C7 40 
    37)        36.5  Rx         021F  8  8F 81 00 FF 00 00 C0 82 
    38)        36.7  Rx         0220  8  D0 FF FF FF FF FF C7 A5 
    39)        37.0  Rx         0221  8  90 81 00 FF 00 00 C0 67 
    40)        37.2  Rx         0222  8  D1 FF FF FF FF FF C7 F8 
    41)        37.5  Rx         0223  8  91 81 00 FF 00 00 C0 3A 
    42)        37.7  Rx         0224  8  D2 FF FF FF FF FF C7 1F 
    43)        37.9  Rx         0225  8  92 81 00 FF 00 00 C0 DD 
    44)        38.2  Rx         0226  8  D3 FF FF FF FF FF C7 42 
    45)        38.4  Rx         0227  8  93 81 00 FF 00 00 C0 80 
    46)        38.7  Rx         0228  8  D4 FF FF FF FF FF C7 CC 
    47)        38.9  Rx         0229  8  94 81 00 FF 00 00 C0 0E 
    48)        39.2  Rx         0100  8  08 00 1E 03 A0 45 06 AF 
    49)        39.4  Rx         022A  8  D5 FF FF FF FF FF C7 91 
    50)        39.6  Rx         022B  8  95 81 00 FF 00 00 C0 53 
    51)        39.9  Rx         022C  8  D6 FF FF FF FF FF C7 76 
    52)        40.2  Rx         022D  8  96 81 00 FF 00 00 C0 B4 
    53)        40.4  Rx         022E  8  D7 FF FF FF FF FF C7 2B 
    54)        40.7  Rx         022F  8  97 81 00 FF 00 00 C0 E9 
    55)        40.9  Rx         0230  8  D8 FF FF FF FF FF C7 77 
    56)        41.1  Rx         0231  8  98 81 00 FF 00 00 C0 B5 
    57)        41.4  Rx         0232  8  D9 FF FF FF FF FF C7 2A 
    58)        41.6  Rx         0233  8  99 81 00 FF 00 00 C0 E8 
    59)        41.9  Rx         0234  8  DA FF FF FF FF FF C7 CD 
    60)        42.1  Rx         0235  8  9A 81 00 FF 00 00 C0 0F 
    61)        42.4  Rx         0236  8  DB FF FF FF FF FF C7 90 
    62)        42.6  Rx         0237  8  9B 81 00 FF 00 00 C0 52 
    63)        42.8  Rx         0238  8  DC FF FF FF FF FF C7 1E 
    64)        43.1  Rx         0239  8  9C 81 00 FF 00 00 C0 DC 
    65)        43.4  Rx         023A  8  DD FF FF FF FF FF C7 43 
    66)        43.6  Rx         023B  8  9D 81 00 FF 00 00 C0 81 
    67)        43.8  Rx         023C  8  DE FF FF FF FF FF C7 A4 
    68)        44.1  Rx         023D  8  9E 81 00 FF 00 00 C0 66 
    69)        44.3  Rx         023E  8  DF FF FF FF FF FF C7 F9 
    70)        44.6  Rx         023F  8  9F 81 00 FF 00 00 C0 3B 
    71)        44.8  Rx         0240  8  E0 FF FF FF FF FF C7 73 
    72)        45.1  Rx         0241  8  A0 81 00 FF 00 00 C0 B1 
    73)        45.3  Rx         0242  8  E1 FF FF FF FF FF C7 2E 
    74)        45.6  Rx         0243  8  A1 81 00 FF 00 00 C0 EC 
    75)        45.8  Rx         0244  8  E2 FF FF FF FF FF C7 C9 
    76)        46.0  Rx         0245  8  A2 81 00 FF 00 00 C0 0B 
    77)        46.3  Rx         0050  8  00 80 00 00 00 00 B0 96 
    78)        46.6  Rx         0174  8  E0 7F 00 00 00 00 B0 95 
    79)        46.8  Rx         0246  8  E3 FF FF FF FF FF C7 94 
    80)        47.0  Rx         0247  8  A3 81 00 FF 00 00 C0 56 
    81)        47.3  Rx         0248  8  E4 FF FF FF FF FF C7 1A 
    82)        47.5  Rx         0249  8  A4 81 00 FF 00 00 C0 D8 
    83)        47.7  Rx         024A  8  E5 FF FF FF FF FF C7 47 
    84)        48.0  Rx         024B  8  A5 81 00 FF 00 00 C0 85 
    85)        48.3  Rx         024C  8  E6 FF FF FF FF FF C7 A0 
    86)        48.5  Rx         024D  8  A6 81 00 FF 00 00 C0 62 
    87)        48.7  Rx         024E  8  E7 FF FF FF FF FF C7 FD 
    88)        49.0  Rx         024F  8  A7 81 00 FF 00 00 C0 3F 
    89)        59.1  Rx         0100  8  08 00 1E 01 A0 43 46 2E 
    90)        66.1  Rx         0050  8  00 80 00 00 00 00 C0 2D 
    91)        66.3  Rx         0174  8  CF 7F 00 00 00 00 C0 FF 
    92)        79.1  Rx         0100  8  08 00 1E 03 A0 45 86 89 
    93)        86.1  Rx         0050  8  00 80 00 00 00 00 D0 3A 
    94)        86.3  Rx         0174  8  E0 7F 00 00 00 00 D0 0D 
    95)        99.1  Rx         0100  8  08 00 1E 01 A0 43 C6 08 
    96)       106.1  Rx         0050  8  00 80 00 00 00 00 E0 65 
    97)       106.3  Rx         0174  8  E0 7F 00 00 00 00 E0 89 
    98)       119.1  Rx         0100  8  08 00 1E 03 A0 45 06 AF 
    99)       126.1  Rx         0050  8  00 80 00 00 00 00 F0 B4 
   100)       126.3  Rx         0174  8  E0 7F 00 00 00 00 F0 6F 
   101)       128.9  Rx         0200  8  C0 FF FF FF FF FF 07 29 
   102)       129.2  Rx         0201  8  C0 72 00 FF 00 00 00 33 
   103)       129.4  Rx         0202  8  C1 FF FF FF FF FF 07 74 
   104)       129.6  Rx         0203  8  C1 72 00 FF 00 00 00 6E 
   105)       129.9  Rx         0204  8  C2 FF FF FF FF FF 07 93 
   106)       130.1  Rx         0205  8  C2 72 00 FF 00 00 00 89 
   107)       130.4  Rx         0206  8  C3 FF FF FF FF FF 07 CE 
   108)       130.6  Rx         0207  8  C3 72 00 FF 00 00 00 D4 
   109)       130.9  Rx         0208  8  C4 FF FF FF FF FF 07 40 
   110)       131.1  Rx         0209  8  C4 72 00 FF 00 00 00 5A 
   111)       131.4  Rx         020A  8  C5 FF FF FF FF FF 07 1D 
   112)       131.6  Rx         020B  8  C5 72 00 FF 00 00 00 07 
   113)       131.8  Rx         020C  8  C6 FF FF FF FF FF 07 FA 
   114)       132.1  Rx         020D  8  C6 72 00 FF 00 00 00 E0 
   115)       132.4  Rx         020E  8  C7 FF FF FF FF FF 07 A7 
   116)       132.6  Rx         020F  8  C7 72 00 FF 00 00 00 BD 
   117)       132.8  Rx         0210  8  C8 FF FF FF FF FF 07 FB 
   118)       133.1  Rx         0211  8  C8 72 00 FF 00 00 00 E1 
   119)       133.3  Rx         0212  8  C9 FF FF FF FF FF 07 A6 
   120)       133.5  Rx         0213  8  C9 72 00 FF 00 00 00 BC 
   121)       133.8  Rx         0214  8  CA FF FF FF FF FF 07 41 
   122)       134.1  Rx         0215  8  CA 72 00 FF 00 00 00 5B 
   123)       134.3  Rx         0216  8  CB FF FF FF FF FF 07 1C 
   124)       134.5  Rx         0217  8  CB 72 00 FF 00 00 00 06 
   125)       134.8  Rx         0218  8  CC FF FF FF FF FF 07 92 
   126)       135.0  Rx         0219  8  CC 72 00 FF 00 00 00 88 
   127)       135.3  Rx         021A  8  CD FF FF FF FF FF 07 CF 
   128)       135.5  Rx         021B  8  CD 72 00 FF 00 00 00 D5 
   129)       135.8  Rx         021C  8  CE FF FF FF FF FF 07 28 
   130)       136.0  Rx         021D  8  CE 72 00 FF 00 00 00 32 
   131)       136.2  Rx         021E  8  CF FF FF FF FF FF 07 75 
   132)       136.5  Rx         021F  8  CF 72 00 FF 00 00 00 6F 
   133)       136.7  Rx         0220  8  D0 FF FF FF FF FF 07 90 
   134)       137.0  Rx         0221  8  D0 72 00 FF 00 00 00 8A 
   135)       137.2  Rx         0222  8  D1 FF FF FF FF FF 07 CD 
   136)       137.5  Rx         0223  8  D1 72 00 FF 00 00 00 D7 
   137)       137.7  Rx         0224  8  D2 FF FF FF FF FF 07 2A 
   138)       137.9  Rx         0225  8  D2 72 00 FF 00 00 00 30 
   139)       138.2  Rx         0226  8  D3 FF FF FF FF FF 07 77 
   140)       138.5  Rx         0227  8  D3 72 00 FF 00 00 00 6D 
   141)       138.7  Rx         0228  8  D4 FF FF FF FF FF 07 F9 
   142)       138.9  Rx         0229  8  D4 72 00 FF 00 00 00 E3 
   143)       139.2  Rx         0100  8  08 00 1E 01 A0 43 46 2E 
   144)       139.4  Rx         022A  8  D5 FF FF FF FF FF 07 A4 
   145)       139.7  Rx         022B  8  D5 72 00 FF 00 00 00 BE 
   146)       139.9  Rx         022C  8  D6 FF FF FF FF FF 07 43 
   147)       140.2  Rx         022D  8  D6 72 00 FF 00 00 00 59 
   148)       140.4  Rx         022E  8  D7 FF FF FF FF FF 07 1E 
   149)       140.7  Rx         022F  8  D7 72 00 FF 00 00 00 04 
   150)       140.9  Rx         0230  8  D8 FF FF FF FF FF 07 42 
   151)       141.1  Rx         0231  8  D8 72 00 FF 00 00 00 58 
   152)       141.4  Rx         0232  8  D9 FF FF FF FF FF 07 1F 
   153)       141.7  Rx         0233  8  D9 72 00 FF 00 00 00 05 
   154)       141.9  Rx         0234  8  DA FF FF FF FF FF 07 F8 
   155)       142.1  Rx         0235  8  DA 72 00 FF 00 00 00 E2 
   156)       142.4  Rx         0236  8  DB FF FF FF FF FF 07 A5 
   157)       142.6  Rx         0237  8  DB 72 00 FF 00 00 00 BF 
   158)       142.9  Rx         0238  8  DC FF FF FF FF FF 07 2B 
   159)       143.1  Rx         0239  8  DC 72 00 FF 00 00 00 31 
   160)       143.4  Rx         023A  8  DD FF FF FF FF FF 07 76 
   161)       143.6  Rx         023B  8  DD 72 00 FF 00 00 00 6C 
   162)       143.9  Rx         023C  8  DE FF FF FF FF FF 07 91 
   163)       144.1  Rx         023D  8  DE 72 00 FF 00 00 00 8B 
   164)       144.3  Rx         023E  8  DF FF FF FF FF FF 07 CC 
   165)       144.6  Rx         023F  8  DF 72 00 FF 00 00 00 D6 
   166)       144.9  Rx         0240  8  E0 FF FF FF FF FF 07 46 
   167)       145.1  Rx         0241  8  E0 72 00 FF 00 00 00 5C 
   168)       145.4  Rx         0242  8  E1 FF FF FF FF FF 07 1B 
   169)       145.6  Rx         0243  8  E1 72 00 FF 00 00 00 01 
   170)       145.8  Rx         0244  8  E2 FF FF FF FF FF 07 FC 
   171)       146.1  Rx         0050  8  00 80 00 00 00 00 00 B3 
   172)       146.3  Rx         0174  8  E0 7F 00 00 00 00 00 71 
   173)       146.6  Rx         0245  8  E2 72 00 FF 00 00 00 E6 
   174)       146.8  Rx         0246  8  E3 FF FF FF FF FF 07 A1 
   175)       147.1  Rx         0247  8  E3 72 00 FF 00 00 00 BB 
   176)       147.3  Rx         0248  8  E4 FF FF FF FF FF 07 2F 
   177)       147.5  Rx         0249  8  E4 72 00 FF 00 00 00 35 
   178)       147.8  Rx         024A  8  E5 FF FF FF FF FF 07 72 
   179)       148.1  Rx         024B  8  E5 72 00 FF 00 00 00 68 
   180)       148.3  Rx         024C  8  E6 FF FF FF FF FF 07 95 
   181)       148.5  Rx         024D  8  E6 72 00 FF 00 00 00 8F 
   182)       148.8  Rx         024E  8  E7 FF FF FF FF FF 07 C8 
   183)       149.0  Rx         024F  8  E7 72 00 FF 00 00 00 D2 
   184)       159.1  Rx         0100  8  08 00 1E 03 A0 45 86 89 
   185)       166.1  Rx         0050  8  00 80 00 00 00 00 10 54 
   186)       166.3  Rx         0174  8  CF 7F 00 00 00 00 10 AE 
   187)       179.1  Rx         0100  8  08 00 1E 01 A0 43 C6 08 
   188)       186.1  Rx         0050  8  00 80 00 00 00 00 20 74 
   189)       186.3  Rx         0174  8  E0 7F 00 00 00 00 20 2C 
   190)       199.1  Rx         0100  8  08 00 1E 03 A0 45 06 AF 
   191)       206.1  Rx         0050  8  00 80 00 00 00 00 30 47 
   192)       206.3  Rx         0174  8  E0 7F 00 00 00 00 30 84 
   193)       219.1  Rx         0100  8  08 00 1E 01 A0 43 46 2E 
   194)       226.1  Rx         0050  8  00 80 00 00 00 00 40 01 
   195)       226.3  Rx         0174  8  E0 7F 00 00 00 00 40 E6 
   196)       228.9  Rx         0200  8  C0 FF FF FF FF FF 47 3A 
   197)       229.1  Rx         0201  8  00 7F 00 FF 00 00 40 16 
   198)       229.4  Rx         0202  8  C1 FF FF FF FF FF 47 67 
   199)       229.6  Rx         0203  8  01 7F 00 FF 00 00 40 4B 
   200)       229.9  Rx         0204  8  C2 FF FF FF FF FF 47 80 
   201)       230.1  Rx         0205  8  02 7F 00 FF 00 00 40 AC 
   202)       230.4  Rx         0206  8  C3 FF FF FF FF FF 47 DD 
   203)       230.6  Rx         0207  8  03 7F 00 FF 00 00 40 F1 
   204)       230.9  Rx         0208  8  C4 FF FF FF FF FF 47 53 
   205)       231.1  Rx         0209  8  04 7F 00 FF 00 00 40 7F 
   206)       231.3  Rx         020A  8  C5 FF FF FF FF FF 47 0E 
   207)       231.6  Rx         020B  8  05 7F 00 FF 00 00 40 22 
   208)       231.9  Rx         020C  8  C6 FF FF FF FF FF 47 E9 
   209)       232.1  Rx         020D  8  06 7F 00 FF 00 00 40 C5 
   210)       232.4  Rx         020E  8  C7 FF FF FF FF FF 47 B4 
   211)       232.6  Rx         020F  8  07 7F 00 FF 00 00 40 98 
   212)       232.8  Rx         0210  8  C8 FF FF FF FF FF 47 E8 
   213)       233.1  Rx         0211  8  08 7F 00 FF 00 00 40 C4 
   214)       233.3  Rx         0212  8  C9 FF FF FF FF FF 47 B5 
   215)       233.6  Rx         0213  8  09 7F 00 FF 00 00 40 99 
   216)       233.8  Rx         0214  8  CA FF FF FF FF FF 47 52 
   217)       234.1  Rx         0215  8  0A 7F 00 FF 00 00 40 7E 
   218)       234.3  Rx         0216  8  CB FF FF FF FF FF 47 0F 
   219)       234.5  Rx         0217  8  0B 7F 00 FF 00 00 40 23 
   220)       234.8  Rx         0218  8  CC FF FF FF FF FF 47 81 
   221)       235.1  Rx         0219  8  0C 7F 00 FF 00 00 40 AD 
   222)       235.3  Rx         021A  8  CD FF FF FF FF FF 47 DC 
   223)       235.5  Rx         021B  8  0D 7F 00 FF 00 00 40 F0 
   224)       235.8  Rx         021C  8  CE FF FF FF FF FF 47 3B 
   225)       236.0  Rx         021D  8  0E 7F 00 FF 00 00 40 17 
   226)       236.2  Rx         021E  8  CF FF FF FF FF FF 47 66 
   227)       236.5  Rx         021F  8  0F 7F 00 FF 00 00 40 4A 
   228)       236.8  Rx         0220  8  D0 FF FF FF FF FF 47 83 
   229)       237.0  Rx         0221  8  10 7F 00 FF 00 00 40 AF 
   230)       237.2  Rx         0222  8  D1 FF FF FF FF FF 47 DE 
   231)       237.5  Rx         0223  8  11 7F 00 FF 00 00 40 F2 
   232)       237.7  Rx         0224  8  D2 FF FF FF FF FF 47 39 
   233)       238.0  Rx         0225  8  12 7F 00 FF 00 00 40 15 
   234)       238.2  Rx         0226  8  D3 FF FF FF FF FF 47 64 
   235)       238.5  Rx         0227  8  13 7F 00 FF 00 00 40 48 
   236)       238.7  Rx         0228  8  D4 FF FF FF FF FF 47 EA 
   237)       238.9  Rx         0229  8  14 7F 00 FF 00 00 40 C6 
   238)       239.2  Rx         0100  8  08 00 1E 03 A0 45 86 89 
   239)       239.4  Rx         022A  8  D5 FF FF FF FF FF 47 B7 
   240)       239.7  Rx         022B  8  15 7F 00 FF 00 00 40 9B 
   241)       239.9  Rx         022C  8  D6 FF FF FF FF FF 47 50 
   242)       240.2  Rx         022D  8  16 7F 00 FF 00 00 40 7C 
   243)       240.4  Rx         022E  8  D7 FF FF FF FF FF 47 0D 
   244)       240.7  Rx         022F  8  17 7F 00 FF 00 00 40 21 
   245)       240.9  Rx         0230  8  D8 FF FF FF FF FF 47 51 
   246)       241.2  Rx         0231  8  18 7F 00 FF 00 00 40 7D 
   247)       241.4  Rx         0232  8  D9 FF FF FF FF FF 47 0C 
   248)       241.7  Rx         0233  8  19 7F 00 FF 00 00 40 20 
   249)       241.9  Rx         0234  8  DA FF FF FF FF FF 47 EB 
   250)       242.1  Rx         0235  8  1A 7F 00 FF 00 00 40 C7 
   251)       242.4  Rx         0236  8  DB FF FF FF FF FF 47 B6 
   252)       242.6  Rx         0237  8  1B 7F 00 FF 00 00 40 9A 
   253)       242.9  Rx         0238  8  DC FF FF FF FF FF 47 38 
   254)       243.1  Rx         0239  8  1C 7F 00 FF 00 00 40 14 
   255)       243.4  Rx         023A  8  DD FF FF FF FF FF 47 65 
   256)       243.6  Rx         023B  8  1D 7F 00 FF 00 00 40 49 
   257)       243.9  Rx         023C  8  DE FF FF FF FF FF 47 82 
   258)       244.1  Rx         023D  8  1E 7F 00 FF 00 00 40 AE 
   259)       244.4  Rx         023E  8  DF FF FF FF FF FF 47 DF 
   260)       244.6  Rx         023F  8  1F 7F 00 FF 00 00 40 F3 
   261)       244.9  Rx         0240  8  E0 FF FF FF FF FF 47 55 
   262)       245.1  Rx         0241  8  20 7F 00 FF 00 00 40 79 
   263)       245.4  Rx         0242  8  E1 FF FF FF FF FF 47 08 
   264)       245.6  Rx         0243  8  21 7F 00 FF 00 00 40 24 
   265)       245.8  Rx         0244  8  E2 FF FF FF FF FF 47 EF 
   266)       246.1  Rx         0050  8  00 80 00 00 00 00 50 E8 
   267)       246.4  Rx         0245  8  22 7F 00 FF 00 00 40 C3 
   268)       246.6  Rx         0174  8  E0 7F 00 00 00 00 50 FC 
   269)       246.8  Rx         0246  8  E3 FF FF FF FF FF 47 B2 
   270)       247.1  Rx         0247  8  23 7F 00 FF 00 00 40 9E 
   271)       247.3  Rx         0248  8  E4 FF FF FF FF FF 47 3C 
   272)       247.6  Rx         0249  8  24 7F 00 FF 00 00 40 10 
   273)       247.8  Rx         024A  8  E5 FF FF FF FF FF 47 61 
   274)       248.1  Rx         024B  8  25 7F 00 FF 00 00 40 4D 
   275)       248.3  Rx         024C  8  E6 FF FF FF FF FF 47 86 
   276)       248.5  Rx         024D  8  26 7F 00 FF 00 00 40 AA 
   277)       248.8  Rx         024E  8  E7 FF FF FF FF FF 47 DB 
   278)       249.0  Rx         024F  8  27 7F 00 FF 00 00 40 F7 
   279)       259.1  Rx         0100  8  08 00 1E 01 A0 43 C6 08 
   280)       266.1  Rx         0050  8  00 80 00 00 00 00 60 6E 
   281)       266.3  Rx         0174  8  E0 7F 00 00 00 00 60 22 
   282)       279.1  Rx         0100  8  08 00 1E 03 A0 45 06 AF 
   283)       286.1  Rx         0050  8  00 80 00 00 00 00 70 B2 
   284)       286.3  Rx         0174  8  E0 7F 00 00 00 00 70 C8 
   285)       299.1  Rx         0100  8  08 00 1E 01 A0 43 46 2E 
   286)       306.0  Rx         0050  8  00 80 00 00 00 00 80 34 
   287)       306.3  Rx         0174  8  E0 7F 00 00 00 00 80 4A 
   288)       319.1  Rx         0100  8  08 00 1E 03 A0 45 86 89 
   289)       326.1  Rx         0050  8  00 80 00 00 00 00 90 E8 
   290)       326.3  Rx         0174  8  E0 7F 00 00 00 00 90 E2 
   291)       338.9  Rx         0200  8  C0 FF FF FF FF FF 87 0F 
   292)       339.1  Rx         0201  8  40 7B 00 FF 00 00 80 F8 
   293)       339.4  Rx         0202  8  C1 FF FF FF FF FF 87 52 
   294)       339.6  Rx         0203  8  41 7B 00 FF 00 00 80 A5 
   295)       339.9  Rx         0204  8  C2 FF FF FF FF FF 87 B5 
   296)       340.1  Rx         0205  8  42 7B 00 FF 00 00 80 42 
   297)       340.4  Rx         0100  8  08 00 1E 01 A0 43 C6 08 
   298)       340.6  Rx         0206  8  C3 FF FF FF FF FF 87 E8 
   299)       340.8  Rx         0207  8  43 7B 00 FF 00 00 80 1F 
   300)       341.1  Rx         0208  8  C4 FF FF FF FF FF 87 66 
   301)       341.3  Rx         0209  8  44 7B 00 FF 00 00 80 91 
   302)       341.6  Rx         020A  8  C5 FF FF FF FF FF 87 3B 
   303)       341.8  Rx         020B  8  45 7B 00 FF 00 00 80 CC 
   304)       342.1  Rx         020C  8  C6 FF FF FF FF FF 87 DC 
   305)       342.3  Rx         020D  8  46 7B 00 FF 00 00 80 2B 
   306)       342.6  Rx         020E  8  C7 FF FF FF FF FF 87 81 
   307)       342.8  Rx         020F  8  47 7B 00 FF 00 00 80 76 
   308)       343.0  Rx         0210  8  C8 FF FF FF FF FF 87 DD 
   309)       343.3  Rx         0211  8  48 7B 00 FF 00 00 80 2A 
   310)       343.5  Rx         0212  8  C9 FF FF FF FF FF 87 80 
   311)       343.8  Rx         0213  8  49 7B 00 FF 00 00 80 77 
   312)       344.0  Rx         0214  8  CA FF FF FF FF FF 87 67 
   313)       344.2  Rx         0215  8  4A 7B 00 FF 00 00 80 90 
   314)       344.5  Rx         0216  8  CB FF FF FF FF FF 87 3A 
   315)       344.7  Rx         0217  8  4B 7B 00 FF 00 00 80 CD 
   316)       345.0  Rx         0218  8  CC FF FF FF FF FF 87 B4 
   317)       345.2  Rx         0219  8  4C 7B 00 FF 00 00 80 43 
   318)       345.5  Rx         021A  8  CD FF FF FF FF FF 87 E9 
   319)       345.7  Rx         021B  8  4D 7B 00 FF 00 00 80 1E 
   320)       345.9  Rx         021C  8  CE FF FF FF FF FF 87 0E 
   321)       346.2  Rx         0050  8  00 80 00 00 00 00 A0 4D 
   322)       346.5  Rx         021D  8  4E 7B 00 FF 00 00 80 F9 
   323)       346.7  Rx         0174  8  CF 7F 00 00 00 00 A0 6A 
   324)       346.9  Rx         021E  8  CF FF FF FF FF FF 87 53 
   325)       347.2  Rx         021F  8  4F 7B 00 FF 00 00 80 A4 
   326)       347.4  Rx         0220  8  D0 FF FF FF FF FF 87 B6 
   327)       347.6  Rx         0221  8  50 7B 00 FF 00 00 80 41 
   328)       347.9  Rx         0222  8  D1 FF FF FF FF FF 87 EB 
   329)       348.2  Rx         0223  8  51 7B 00 FF 00 00 80 1C 
   330)       348.4  Rx         0224  8  D2 FF FF FF FF FF 87 0C 
   331)       348.6  Rx         0225  8  52 7B 00 FF 00 00 80 FB 
   332)       348.9  Rx         0226  8  D3 FF FF FF FF FF 87 51 
   333)       349.1  Rx         0227  8  53 7B 00 FF 00 00 80 A6 
   334)       349.4  Rx         0228  8  D4 FF FF FF FF FF 87 DF 
   335)       349.6  Rx         0229  8  54 7B 00 FF 00 00 80 28 
   336)       349.9  Rx         022A  8  D5 FF FF FF FF FF 87 82 
   337)       350.1  Rx         022B  8  55 7B 00 FF 00 00 80 75 
   338)       350.3  Rx         022C  8  D6 FF FF FF FF FF 87 65 
   339)       350.6  Rx         022D  8  56 7B 00 FF 00 00 80 92 
   340)       350.8  Rx         022E  8  D7 FF FF FF FF FF 87 38 
   341)       351.1  Rx         022F  8  57 7B 00 FF 00 00 80 CF 
   342)       351.3  Rx         0230  8  D8 FF FF FF FF FF 87 64 
   343)       351.6  Rx         0231  8  58 7B 00 FF 00 00 80 93 
   344)       351.8  Rx         0232  8  D9 FF FF FF FF FF 87 39 
   345)       352.0  Rx         0233  8  59 7B 00 FF 00 00 80 CE 
   346)       352.3  Rx         0234  8  DA FF FF FF FF FF 87 DE 
   347)       352.6  Rx         0235  8  5A 7B 00 FF 00 00 80 29 
   348)       352.8  Rx         0236  8  DB FF FF FF FF FF 87 83 
   349)       353.0  Rx         0237  8  5B 7B 00 FF 00 00 80 74 
   350)       353.3  Rx         0238  8  DC FF FF FF FF FF 87 0D 
   351)       353.5  Rx         0239  8  5C 7B 00 FF 00 00 80 FA 
   352)       353.7  Rx         023A  8  DD FF FF FF FF FF 87 50 
   353)       354.0  Rx         023B  8  5D 7B 00 FF 00 00 80 A7 
   354)       354.3  Rx         023C  8  DE FF FF FF FF FF 87 B7 
   355)       354.5  Rx         023D  8  5E 7B 00 FF 00 00 80 40 
   356)       354.7  Rx         023E  8  DF FF FF FF FF FF 87 EA 
   357)       355.0  Rx         023F  8  5F 7B 00 FF 00 00 80 1D 
   358)       355.2  Rx         0240  8  E0 FF FF FF FF FF 87 60 
   359)       355.5  Rx         0241  8  60 7B 00 FF 00 00 80 97 
   360)       355.8  Rx         0242  8  E1 FF FF FF FF FF 87 3D 
   361)       356.0  Rx         0243  8  61 7B 00 FF 00 00 80 CA 
   362)       356.2  Rx         0244  8  E2 FF FF FF FF FF 87 DA 
   363)       356.5  Rx         0245  8  62 7B 00 FF 00 00 80 2D 
   364)       356.7  Rx         0246  8  E3 FF FF FF FF FF 87 87 
   365)       356.9  Rx         0247  8  63 7B 00 FF 00 00 80 70 
   366)       357.2  Rx         0248  8  E4 FF FF FF FF FF 87 09 
   367)       357.5  Rx         0249  8  64 7B 00 FF 00 00 80 FE 
   368)       357.7  Rx         024A  8  E5 FF FF FF FF FF 87 54 
   369)       357.9  Rx         024B  8  65 7B 00 FF 00 00 80 A3 
   370)       358.2  Rx         024C  8  E6 FF FF FF FF FF 87 B3 
   371)       358.4  Rx         024D  8  66 7B 00 FF 00 00 80 44 
   372)       358.7  Rx         024E  8  E7 FF FF FF FF FF 87 EE 
   373)       358.9  Rx         024F  8  67 7B 00 FF 00 00 80 19 
   374)       359.2  Rx         0100  8  08 00 1E 03 A0 45 06 AF 
   375)       366.1  Rx         0050  8  00 80 00 00 00 00 B0 31 
   376)       366.3  Rx         0174  8  E0 7F 00 00 00 00 B0 10 
   377)       379.1  Rx         0100  8  08 00 1E 01 A0 43 46 2E 
   378)       386.0  Rx         0050  8  00 80 00 00 00 00 C0 DF 
   379)       386.3  Rx         0174  8  E0 7F 00 00 00 00 C0 B0 
   380)       399.1  Rx         0100  8  08 00 1E 03 A0 45 86 89 
   381)       406.1  Rx         0050  8  00 80 00 00 00 00 D0 7F 
   382)       406.3  Rx         0174  8  E0 7F 00 00 00 00 D0 A5 
   383)       419.1  Rx         0100  8  08 00 1E 01 A0 43 C6 08 
   384)       426.1  Rx         0050  8  00 80 00 00 00 00 E0 1F 
   385)       426.3  Rx         0174  8  E0 7F 00 00 00 00 E0 C0 
   386)       428.8  Rx         0200  8  C0 FF FF FF FF FF C7 1C 
   387)       429.1  Rx         0201  8  80 81 00 FF 00 00 C0 DE 
   388)       429.4  Rx         0202  8  C1 FF FF FF FF FF C7 41 
   389)       429.6  Rx         0203  8  81 81 00 FF 00 00 C0 83 
   390)       429.9  Rx         0204  8  C2 FF FF FF FF FF C7 A6 
   391)       430.1  Rx         0205  8  82 81 00 FF 00 00 C0 64 
   392)       430.3  Rx         0206  8  C3 FF FF FF FF FF C7 FB 
   393)       430.6  Rx         0207  8  83 81 00 FF 00 00 C0 39 
   394)       430.8  Rx         0208  8  C4 FF FF FF FF FF C7 75 
   395)       431.1  Rx         0209  8  84 81 00 FF 00 00 C0 B7 
   396)       431.3  Rx         020A  8  C5 FF FF FF FF FF C7 28 
   397)       431.6  Rx         020B  8  85 81 00 FF 00 00 C0 EA 
   398)       431.8  Rx         020C  8  C6 FF FF FF FF FF C7 CF 
   399)       432.1  Rx         020D  8  86 81 00 FF 00 00 C0 0D 
   400)       432.3  Rx         020E  8  C7 FF FF FF FF FF C7 92 
   401)       432.6  Rx         020F  8  87 81 00 FF 00 00 C0 50 
   402)       432.8  Rx         0210  8  C8 FF FF FF FF FF C7 CE 
   403)       433.1  Rx         0211  8  88 81 00 FF 00 00 C0 0C 
   404)       433.3  Rx         0212  8  C9 FF FF FF FF FF C7 93 
   405)       433.5  Rx         0213  8  89 81 00 FF 00 00 C0 51 
   406)       433.8  Rx         0214  8  CA FF FF FF FF FF C7 74 
   407)       434.0  Rx         0215  8  8A 81 00 FF 00 00 C0 B6 
   408)       434.3  Rx         0216  8  CB FF FF FF FF FF C7 29 
   409)       434.5  Rx         0217  8  8B 81 00 FF 00 00 C0 EB 
   410)       434.8  Rx         0218  8  CC FF FF FF FF FF C7 A7 
   411)       435.0  Rx         0219  8  8C 81 00 FF 00 00 C0 65 
   412)       435.2  Rx         021A  8  CD FF FF FF FF FF C7 FA 
   413)       435.5  Rx         021B  8  8D 81 00 FF 00 00 C0 38 
   414)       435.7  Rx         021C  8  CE FF FF FF FF FF C7 1D 
   415)       436.0  Rx         021D  8  8E 81 00 FF 00 00 C0 DF 
   416)       436.2  Rx         021E  8  CF FF FF FF FF FF C7 40 
   417)       436.5  Rx         021F  8  8F 81 00 FF 00 00 C0 82 
   418)       436.7  Rx         0220  8  D0 FF FF FF FF FF C7 A5 
   419)       436.9  Rx         0221  8  90 81 00 FF 00 00 C0 67 
   420)       437.2  Rx         0222  8  D1 FF FF FF FF FF C7 F8 
   421)       437.4  Rx         0223  8  91 81 00 FF 00 00 C0 3A 
   422)       437.7  Rx         0224  8  D2 FF FF FF FF FF C7 1F 
   423)       437.9  Rx         0225  8  92 81 00 FF 00 00 C0 DD 
   424)       438.1  Rx         0226  8  D3 FF FF FF FF FF C7 42 
   425)       438.4  Rx         0227  8  93 81 00 FF 00 00 C0 80 
   426)       438.7  Rx         0228  8  D4 FF FF FF FF FF C7 CC 
   427)       438.9  Rx         0229  8  94 81 00 FF 00 00 C0 0E 
   428)       439.1  Rx         0100  8  08 00 1E 03 A0 45 06 AF 
   429)       439.4  Rx         022A  8  D5 FF FF FF FF FF C7 91 
   430)       439.6  Rx         022B  8  95 81 00 FF 00 00 C0 53 
   431)       439.9  Rx         022C  8  D6 FF FF FF FF FF C7 76 
   432)       440.1  Rx         022D  8  96 81 00 FF 00 00 C0 B4 
   433)       440.4  Rx         022E  8  D7 FF FF FF FF FF C7 2B 
   434)       440.6  Rx         022F  8  97 81 00 FF 00 00 C0 E9 
   435)       440.9  Rx         0230  8  D8 FF FF FF FF FF C7 77 
   436)       441.1  Rx         0231  8  98 81 00 FF 00 00 C0 B5 
   437)       441.3  Rx         0232  8  D9 FF FF FF FF FF C7 2A 
   438)       441.6  Rx         0233  8  99 81 00 FF 00 00 C0 E8 
   439)       441.9  Rx         0234  8  DA FF FF FF FF FF C7 CD 
   440)       442.1  Rx         0235  8  9A 81 00 FF 00 00 C0 0F 
   441)       442.3  Rx         0236  8  DB FF FF FF FF FF C7 90 
   442)       442.6  Rx         0237  8  9B 81 00 FF 00 00 C0 52 
   443)       442.8  Rx         0238  8  DC FF FF FF FF FF C7 1E 
   444)       443.0  Rx         0239  8  9C 81 00 FF 00 00 C0 DC 
   445)       443.3  Rx         023A  8  DD FF FF FF FF FF C7 43 
   446)       443.6  Rx         023B  8  9D 81 00 FF 00 00 C0 81 
   447)       443.8  Rx         023C  8  DE FF FF FF FF FF C7 A4 
   448)       444.0  Rx         023D  8  9E 81 00 FF 00 00 C0 66 
   449)       444.3  Rx         023E  8  DF FF FF FF FF FF C7 F9 
   450)       444.5  Rx         023F  8  9F 81 00 FF 00 00 C0 3B 
   451)       444.8  Rx         0240  8  E0 FF FF FF FF FF C7 73 
   452)       445.1  Rx         0241  8  A0 81 00 FF 00 00 C0 B1 
   453)       445.3  Rx         0242  8  E1 FF FF FF FF FF C7 2E 
   454)       445.5  Rx         0243  8  A1 81 00 FF 00 00 C0 EC 
   455)       445.8  Rx         0244  8  E2 FF FF FF FF FF C7 C9 
   456)       446.0  Rx         0245  8  A2 81 00 FF 00 00 C0 0B 
   457)       446.3  Rx         0050  8  00 80 00 00 00 00 F0 3F 
   458)       446.5  Rx         0174  8  E0 7F 00 00 00 00 F0 89 
   459)       446.8  Rx         0246  8  E3 FF FF FF FF FF C7 94 
   460)       447.0  Rx         0247  8  A3 81 00 FF 00 00 C0 56 
   461)       447.2  Rx         0248  8  E4 FF FF FF FF FF C7 1A 
   462)       447.5  Rx         0249  8  A4 81 00 FF 00 00 C0 D8 
   463)       447.7  Rx         024A  8  E5 FF FF FF FF FF C7 47 
   464)       448.0  Rx         024B  8  A5 81 00 FF 00 00 C0 85 
   465)       448.2  Rx         024C  8  E6 FF FF FF FF FF C7 A0 
   466)       448.5  Rx         024D  8  A6 81 00 FF 00 00 C0 62 
   467)       448.7  Rx         024E  8  E7 FF FF FF FF FF C7 FD 
   468)       449.0  Rx         024F  8  A7 81 00 FF 00 00 C0 3F 
   469)       459.0  Rx         0100  8  08 00 1E 01 A0 43 46 2E 
   470)       466.0  Rx         0050  8  00 80 00 00 00 00 00 5A 
   471)       466.3  Rx         0174  8  E0 7F 00 00 00 00 00 8D 
   472)       479.1  Rx         0100  8  08 00 1E 03 A0 45 86 89 
   473)       486.1  Rx         0050  8  00 80 00 00 00 00 10 13 
   474)       486.3  Rx         0174  8  E0 7F 00 00 00 00 10 4D 
   475)       499.1  Rx         0100  8  08 00 1E 01 A0 43 C6 08 
   476)       506.1  Rx         0050  8  00 80 00 00 00 00 20 34 
   477)       506.3  Rx         0174  8  E0 7F 00 00 00 00 20 B9 
   478)       519.1  Rx         0100  8  08 00 1E 03 A0 45 06 AF 
   479)       526.1  Rx         0050  8  00 80 00 00 00 00 30 54 
   480)       526.3  Rx         0174  8  CF 7F 00 00 00 00 30 06 
   481)       538.8  Rx         0200  8  C0 FF FF FF FF FF 07 29 
   482)       539.1  Rx         0201  8  80 71 00 FF 00 00 00 27 
   483)       539.3  Rx         0202  8  C1 FF FF FF FF FF 07 74 
   484)       539.6  Rx         0203  8  81 71 00 FF 00 00 00 7A 
   485)       539.9  Rx         0204  8  C2 FF FF FF FF FF 07 93 
   486)       540.1  Rx         0205  8  82 71 00 FF 00 00 00 9D 
   487)       540.3  Rx         0100  8  08 00 1E 01 A0 43 46 2E 
   488)       540.6  Rx         0206  8  C3 FF FF FF FF FF 07 CE 
   489)       540.8  Rx         0207  8  83 71 00 FF 00 00 00 C0 
   490)       541.1  Rx         0208  8  C4 FF FF FF FF FF 07 40 
   491)       541.3  Rx         0209  8  84 71 00 FF 00 00 00 4E 
   492)       541.6  Rx         020A  8  C5 FF FF FF FF FF 07 1D 
   493)       541.8  Rx         020B  8  85 71 00 FF 00 00 00 13 
   494)       542.1  Rx         020C  8  C6 FF FF FF FF FF 07 FA 
   495)       542.3  Rx         020D  8  86 71 00 FF 00 00 00 F4 
   496)       542.5  Rx         020E  8  C7 FF FF FF FF FF 07 A7 
   497)       542.8  Rx         020F  8  87 71 00 FF 00 00 00 A9 
   498)       543.1  Rx         0210  8  C8 FF FF FF FF FF 07 FB 
   499)       543.3  Rx         0211  8  88 71 00 FF 00 00 00 F5 
   500)       543.5  Rx         0212  8  C9 FF FF FF FF FF 07 A6 
   501)       543.8  Rx         0213  8  89 71 00 FF 00 00 00 A8 
   502)       544.0  Rx         0214  8  CA FF FF FF FF FF 07 41 
   503)       544.3  Rx         0215  8  8A 71 00 FF 00 00 00 4F 
   504)       544.5  Rx         0216  8  CB FF FF FF FF FF 07 1C 
   505)       544.8  Rx         0217  8  8B 71 00 FF 00 00 00 12 
   506)       545.0  Rx         0218  8  CC FF FF FF FF FF 07 92 
   507)       545.2  Rx         0219  8  8C 71 00 FF 00 00 00 9C 
   508)       545.5  Rx         021A  8  CD FF FF FF FF FF 07 CF 
   509)       545.7  Rx         021B  8  8D 71 00 FF 00 00 00 C1 
   510)       546.0  Rx         021C  8  CE FF FF FF FF FF 07 28 
   511)       546.2  Rx         0050  8  00 80 00 00 00 00 40 EB 
   512)       546.5  Rx         0174  8  E0 7F 00 00 00 00 40 FA 
   513)       546.7  Rx         021D  8  8E 71 00 FF 00 00 00 26 
   514)       546.9  Rx         021E  8  CF FF FF FF FF FF 07 75 
   515)       547.2  Rx         021F  8  8F 71 00 FF 00 00 00 7B 
   516)       547.5  Rx         0220  8  D0 FF FF FF FF FF 07 90 
   517)       547.7  Rx         0221  8  90 71 00 FF 00 00 00 9E 
   518)       547.9  Rx         0222  8  D1 FF FF FF FF FF 07 CD 
   519)       548.2  Rx         0223  8  91 71 00 FF 00 00 00 C3 
   520)       548.4  Rx         0224  8  D2 FF FF FF FF FF 07 2A 
   521)       548.6  Rx         0225  8  92 71 00 FF 00 00 00 24 
   522)       548.9  Rx         0226  8  D3 FF FF FF FF FF 07 77 
   523)       549.2  Rx         0227  8  93 71 00 FF 00 00 00 79 
   524)       549.4  Rx         0228  8  D4 FF FF FF FF FF 07 F9 
   525)       549.7  Rx         0229  8  94 71 00 FF 00 00 00 F7 
   526)       549.9  Rx         022A  8  D5 FF FF FF FF FF 07 A4 
   527)       550.1  Rx         022B  8  95 71 00 FF 00 00 00 AA 
   528)       550.4  Rx         022C  8  D6 FF FF FF FF FF 07 43 
   529)       550.7  Rx         022D  8  96 71 00 FF 00 00 00 4D 
   530)       550.9  Rx         022E  8  D7 FF FF FF FF FF 07 1E 
   531)       551.1  Rx         022F  8  97 71 00 FF 00 00 00 10 
   532)       551.4  Rx         0230  8  D8 FF FF FF FF FF 07 42 
   533)       551.6  Rx         0231  8  98 71 00 FF 00 00 00 4C 
   534)       551.9  Rx         0232  8  D9 FF FF FF FF FF 07 1F 
   535)       552.1  Rx         0233  8  99 71 00 FF 00 00 00 11 
   536)       552.4  Rx         0234  8  DA FF FF FF FF FF 07 F8 
   537)       552.6  Rx         0235  8  9A 71 00 FF 00 00 00 F6 
   538)       552.9  Rx         0236  8  DB FF FF FF FF FF 07 A5 
   539)       553.1  Rx         0237  8  9B 71 00 FF 00 00 00 AB 
   540)       553.3  Rx         0238  8  DC FF FF FF FF FF 07 2B 
   541)       553.6  Rx         0239  8  9C 71 00 FF 00 00 00 25 
   542)       553.9  Rx         023A  8  DD FF FF FF FF FF 07 76 
   543)       554.1  Rx         023B  8  9D 71 00 FF 00 00 00 78 
   544)       554.3  Rx         023C  8  DE FF FF FF FF FF 07 91 
   545)       554.6  Rx         023D  8  9E 71 00 FF 00 00 00 9F 
   546)       554.8  Rx         023E  8  DF FF FF FF FF FF 07 CC 
   547)       555.1  Rx         023F  8  9F 71 00 FF 00 00 00 C2 
   548)       555.3  Rx         0240  8  E0 FF FF FF FF FF 07 46 
   549)       555.6  Rx         0241  8  A0 71 00 FF 00 00 00 48 
   550)       555.8  Rx         0242  8  E1 FF FF FF FF FF 07 1B 
   551)       556.1  Rx         0243  8  A1 71 00 FF 00 00 00 15 
   552)       556.3  Rx         0244  8  E2 FF FF FF FF FF 07 FC 
   553)       556.6  Rx         0245  8  A2 71 00 FF 00 00 00 F2 
   554)       556.8  Rx         0246  8  E3 FF FF FF FF FF 07 A1 
   555)       557.1  Rx         0247  8  A3 71 00 FF 00 00 00 AF 
   556)       557.3  Rx         0248  8  E4 FF FF FF FF FF 07 2F 
   557)       557.6  Rx         0249  8  A4 71 00 FF 00 00 00 21 
   558)       557.8  Rx         024A  8  E5 FF FF FF FF FF 07 72 
   559)       558.0  Rx         024B  8  A5 71 00 FF 00 00 00 7C 
   560)       558.3  Rx         024C  8  E6 FF FF FF FF FF 07 95 
   561)       558.5  Rx         024D  8  A6 71 00 FF 00 00 00 9B 
   562)       558.8  Rx         024E  8  E7 FF FF FF FF FF 07 C8 
   563)       559.0  Rx         024F  8  A7 71 00 FF 00 00 00 C6 
   564)       559.3  Rx         0100  8  08 00 1E 03 A0 45 86 89 
   565)       566.1  Rx         0050  8  00 80 00 00 00 00 50 88 
   566)       566.3  Rx         0174  8  E0 7F 00 00 00 00 50 AD 
   567)       579.1  Rx         0100  8  08 00 1E 01 A0 43 C6 08 
   568)       586.1  Rx         0050  8  00 80 00 00 00 00 60 FA 
   569)       586.3  Rx         0174  8  E0 7F 00 00 00 00 60 E1 
   570)       599.1  Rx         0100  8  08 00 1E 03 A0 45 06 AF 
   571)       606.0  Rx         0050  8  00 80 00 00 00 00 70 2D 
   572)       606.3  Rx         0174  8  E0 7F 00 00 00 00 70 DA 
   573)       619.1  Rx         0100  8  08 00 1E 01 A0 43 46 2E 
   574)       626.0  Rx         0050  8  00 80 00 00 00 00 80 64 
   575)       626.3  Rx         0174  8  E0 7F 00 00 00 00 80 BD 
   576)       628.9  Rx         0200  8  C0 FF FF FF FF FF 47 3A 
   577)       629.1  Rx         0201  8  80 81 00 FF 00 00 40 F8 
   578)       629.3  Rx         0202  8  C1 FF FF FF FF FF 47 67 
   579)       629.6  Rx         0203  8  81 81 00 FF 00 00 40 A5 
   580)       629.8  Rx         0204  8  C2 FF FF FF FF FF 47 80 
   581)       630.1  Rx         0205  8  82 81 00 FF 00 00 40 42 
   582)       630.4  Rx         0206  8  C3 FF FF FF FF FF 47 DD 
   583)       630.6  Rx         0207  8  83 81 00 FF 00 00 40 1F 
   584)       630.8  Rx         0208  8  C4 FF FF FF FF FF 47 53 
   585)       631.1  Rx         0209  8  84 81 00 FF 00 00 40 91 
   586)       631.3  Rx         020A  8  C5 FF FF FF FF FF 47 0E 
   587)       631.5  Rx         020B  8  85 81 00 FF 00 00 40 CC 
   588)       631.8  Rx         020C  8  C6 FF FF FF FF FF 47 E9 
   589)       632.1  Rx         020D  8  86 81 00 FF 00 00 40 2B 
   590)       632.3  Rx         020E  8  C7 FF FF FF FF FF 47 B4 
   591)       632.6  Rx         020F  8  87 81 00 FF 00 00 40 76 
   592)       632.8  Rx         0210  8  C8 FF FF FF FF FF 47 E8 
   593)       633.0  Rx         0211  8  88 81 00 FF 00 00 40 2A 
   594)       633.3  Rx         0212  8  C9 FF FF FF FF FF 47 B5 
   595)       633.5  Rx         0213  8  89 81 00 FF 00 00 40 77 
   596)       633.8  Rx         0214  8  CA FF FF FF FF FF 47 52 
   597)       634.0  Rx         0215  8  8A 81 00 FF 00 00 40 90 
   598)       634.2  Rx         0216  8  CB FF FF FF FF FF 47 0F 
   599)       634.5  Rx         0217  8  8B 81 00 FF 00 00 40 CD 
   600)       634.7  Rx         0218  8  CC FF FF FF FF FF 47 81 
   601)       635.0  Rx         0219  8  8C 81 00 FF 00 00 40 43 
   602)       635.2  Rx         021A  8  CD FF FF FF FF FF 47 DC 
   603)       635.5  Rx         021B  8  8D 81 00 FF 00 00 40 1E 
   604)       635.7  Rx         021C  8  CE FF FF FF FF FF 47 3B 
   605)       635.9  Rx         021D  8  8E 81 00 FF 00 00 40 F9 
   606)       636.2  Rx         021E  8  CF FF FF FF FF FF 47 66 
   607)       636.5  Rx         021F  8  8F 81 00 FF 00 00 40 A4 
   608)       636.7  Rx         0220  8  D0 FF FF FF FF FF 47 83 
   609)       636.9  Rx         0221  8  90 81 00 FF 00 00 40 41 
   610)       637.2  Rx         0222  8  D1 FF FF FF FF FF 47 DE 
   611)       637.4  Rx         0223  8  91 81 00 FF 00 00 40 1C 
   612)       637.7  Rx         0224  8  D2 FF FF FF FF FF 47 39 
   613)       637.9  Rx         0225  8  92 81 00 FF 00 00 40 FB 
   614)       638.2  Rx         0226  8  D3 FF FF FF FF FF 47 64 
   615)       638.4  Rx         0227  8  93 81 00 FF 00 00 40 A6 
   616)       638.6  Rx         0228  8  D4 FF FF FF FF FF 47 EA 
   617)       638.9  Rx         0229  8  94 81 00 FF 00 00 40 28 
   618)       639.1  Rx         0100  8  08 00 1E 03 A0 45 86 89 
   619)       639.4  Rx         022A  8  D5 FF FF FF FF FF 47 B7 
   620)       639.6  Rx         022B  8  95 81 00 FF 00 00 40 75 
   621)       639.9  Rx         022C  8  D6 FF FF FF FF FF 47 50 
   622)       640.1  Rx         022D  8  96 81 00 FF 00 00 40 92 
   623)       640.4  Rx         022E  8  D7 FF FF FF FF FF 47 0D 
   624)       640.6  Rx         022F  8  97 81 00 FF 00 00 40 CF 
   625)       640.8  Rx         0230  8  D8 FF FF FF FF FF 47 51 
   626)       641.1  Rx         0231  8  98 81 00 FF 00 00 40 93 
   627)       641.3  Rx         0232  8  D9 FF FF FF FF FF 47 0C 
   628)       641.6  Rx         0233  8  99 81 00 FF 00 00 40 CE 
   629)       641.8  Rx         0234  8  DA FF FF FF FF FF 47 EB 
   630)       642.1  Rx         0235  8  9A 81 00 FF 00 00 40 29 
   631)       642.3  Rx         0236  8  DB FF FF FF FF FF 47 B6 
   632)       642.6  Rx         0237  8  9B 81 00 FF 00 00 40 74 
   633)       642.8  Rx         0238  8  DC FF FF FF FF FF 47 38 
   634)       643.1  Rx         0239  8  9C 81 00 FF 00 00 40 FA 
   635)       643.3  Rx         023A  8  DD FF FF FF FF FF 47 65 
   636)       643.5  Rx         023B  8  9D 81 00 FF 00 00 40 A7 
   637)       643.8  Rx         023C  8  DE FF FF FF FF FF 47 82 
   638)       644.0  Rx         023D  8  9E 81 00 FF 00 00 40 40 
   639)       644.3  Rx         023E  8  DF FF FF FF FF FF 47 DF 
   640)       644.5  Rx         023F  8  9F 81 00 FF 00 00 40 1D 
   641)       644.8  Rx         0240  8  E0 FF FF FF FF FF 47 55 
   642)       645.0  Rx         0241  8  A0 81 00 FF 00 00 40 97 
   643)       645.3  Rx         0242  8  E1 FF FF FF FF FF 47 08 
   644)       645.5  Rx         0243  8  A1 81 00 FF 00 00 40 CA 
   645)       645.8  Rx         0244  8  E2 FF FF FF FF FF 47 EF 
   646)       646.0  Rx         0245  8  A2 81 00 FF 00 00 40 2D 
   647)       646.3  Rx         0050  8  00 80 00 00 00 00 90 36 
   648)       646.5  Rx         0174  8  E0 7F 00 00 00 00 90 CE 
   649)       646.7  Rx         0246  8  E3 FF FF FF FF FF 47 B2 
   650)       647.0  Rx         0247  8  A3 81 00 FF 00 00 40 70 
   651)       647.2  Rx         0248  8  E4 FF FF FF FF FF 47 3C 
   652)       647.5  Rx         0249  8  A4 81 00 FF 00 00 40 FE 
   653)       647.7  Rx         024A  8  E5 FF FF FF FF FF 47 61 
   654)       648.0  Rx         024B  8  A5 81 00 FF 00 00 40 A3 
   655)       648.2  Rx         024C  8  E6 FF FF FF FF FF 47 86 
   656)       648.4  Rx         024D  8  A6 81 00 FF 00 00 40 44 
   657)       648.7  Rx         024E  8  E7 FF FF FF FF FF 47 DB 
   658)       649.0  Rx         024F  8  A7 81 00 FF 00 00 40 19 
   659)       659.0  Rx         0100  8  08 00 1E 01 A0 43 C6 08 
   660)       666.1  Rx         0050  8  00 80 00 00 00 00 A0 13 
   661)       666.3  Rx         0174  8  E0 7F 00 00 00 00 A0 71 
   662)       679.1  Rx         0100  8  08 00 1E 03 A0 45 06 AF 
   663)       686.0  Rx         0050  8  00 80 00 00 00 00 B0 49 
   664)       686.3  Rx         0174  8  F0 7F 00 00 00 00 B0 12 
   665)       699.0  Rx         0100  8  08 00 1E 01 A0 43 46 2E 
   666)       706.0  Rx         0050  8  00 80 00 00 00 00 C0 6E 
   667)       706.3  Rx         0174  8  E0 7F 00 00 00 00 C0 8A 
   668)       719.1  Rx         0100  8  08 00 1E 03 A0 45 86 89 
   669)       726.1  Rx         0050  8  00 80 00 00 00 00 D0 0E 
   670)       726.3  Rx         0174  8  E0 7F 00 00 00 00 D0 3D 
   671)       728.8  Rx         0200  8  C0 FF FF FF FF FF 87 0F 
   672)       729.1  Rx         0201  8  00 6F 00 FF 00 00 80 37 
   673)       729.3  Rx         0202  8  C1 FF FF FF FF FF 87 52 
   674)       729.6  Rx         0203  8  01 6F 00 FF 00 00 80 6A 
   675)       729.8  Rx         0204  8  C2 FF FF FF FF FF 87 B5 
   676)       730.1  Rx         0205  8  02 6F 00 FF 00 00 80 8D 
   677)       730.3  Rx         0206  8  C3 FF FF FF FF FF 87 E8 
   678)       730.6  Rx         0207  8  03 6F 00 FF 00 00 80 D0 
   679)       730.8  Rx         0208  8  C4 FF FF FF FF FF 87 66 
   680)       731.0  Rx         0209  8  04 6F 00 FF 00 00 80 5E 
   681)       731.3  Rx         020A  8  C5 FF FF FF FF FF 87 3B 
   682)       731.6  Rx         020B  8  05 6F 00 FF 00 00 80 03 
   683)       731.8  Rx         020C  8  C6 FF FF FF FF FF 87 DC 
   684)       732.1  Rx         020D  8  06 6F 00 FF 00 00 80 E4 
   685)       732.3  Rx         020E  8  C7 FF FF FF FF FF 87 81 
   686)       732.5  Rx         020F  8  07 6F 00 FF 00 00 80 B9 
   687)       732.8  Rx         0210  8  C8 FF FF FF FF FF 87 DD 
   688)       733.0  Rx         0211  8  08 6F 00 FF 00 00 80 E5 
   689)       733.3  Rx         0212  8  C9 FF FF FF FF FF 87 80 
   690)       733.5  Rx         0213  8  09 6F 00 FF 00 00 80 B8 
   691)       733.8  Rx         0214  8  CA FF FF FF FF FF 87 67 
   692)       734.0  Rx         0215  8  0A 6F 00 FF 00 00 80 5F 
   693)       734.2  Rx         0216  8  CB FF FF FF FF FF 87 3A 
   694)       734.5  Rx         0217  8  0B 6F 00 FF 00 00 80 02 
   695)       734.8  Rx         0218  8  CC FF FF FF FF FF 87 B4 
   696)       735.0  Rx         0219  8  0C 6F 00 FF 00 00 80 8C 
   697)       735.2  Rx         021A  8  CD FF FF FF FF FF 87 E9 
   698)       735.5  Rx         021B  8  0D 6F 00 FF 00 00 80 D1 
   699)       735.7  Rx         021C  8  CE FF FF FF FF FF 87 0E 
   700)       736.0  Rx         021D  8  0E 6F 00 FF 00 00 80 36 
   701)       736.2  Rx         021E  8  CF FF FF FF FF FF 87 53 
   702)       736.5  Rx         021F  8  0F 6F 00 FF 00 00 80 6B 
   703)       736.7  Rx         0220  8  D0 FF FF FF FF FF 87 B6 
   704)       736.9  Rx         0221  8  10 6F 00 FF 00 00 80 8E 
   705)       737.2  Rx         0222  8  D1 FF FF FF FF FF 87 EB 
   706)       737.4  Rx         0223  8  11 6F 00 FF 00 00 80 D3 
   707)       737.7  Rx         0224  8  D2 FF FF FF FF FF 87 0C 
   708)       737.9  Rx         0225  8  12 6F 00 FF 00 00 80 34 
   709)       738.2  Rx         0226  8  D3 FF FF FF FF FF 87 51 
   710)       738.4  Rx         0227  8  13 6F 00 FF 00 00 80 69 
   711)       738.6  Rx         0228  8  D4 FF FF FF FF FF 87 DF 
   712)       738.9  Rx         0229  8  14 6F 00 FF 00 00 80 E7 
   713)       739.1  Rx         0100  8  08 00 1E 01 A0 43 C6 08 
   714)       739.4  Rx         022A  8  D5 FF FF FF FF FF 87 82 
   715)       739.6  Rx         022B  8  15 6F 00 FF 00 00 80 BA 
   716)       739.9  Rx         022C  8  D6 FF FF FF FF FF 87 65 
   717)       740.1  Rx         022D  8  16 6F 00 FF 00 00 80 5D 
   718)       740.3  Rx         022E  8  D7 FF FF FF FF FF 87 38 
   719)       740.6  Rx         022F  8  17 6F 00 FF 00 00 80 00 
   720)       740.9  Rx         0230  8  D8 FF FF FF FF FF 87 64 
   721)       741.1  Rx         0231  8  18 6F 00 FF 00 00 80 5C 
   722)       741.3  Rx         0232  8  D9 FF FF FF FF FF 87 39 
   723)       741.6  Rx         0233  8  19 6F 00 FF 00 00 80 01 
   724)       741.8  Rx         0234  8  DA FF FF FF FF FF 87 DE 
   725)       742.1  Rx         0235  8  1A 6F 00 FF 00 00 80 E6 
   726)       742.3  Rx         0236  8  DB FF FF FF FF FF 87 83 
   727)       742.6  Rx         0237  8  1B 6F 00 FF 00 00 80 BB 
   728)       742.8  Rx         0238  8  DC FF FF FF FF FF 87 0D 
   729)       743.0  Rx         0239  8  1C 6F 00 FF 00 00 80 35 
   730)       743.3  Rx         023A  8  DD FF FF FF FF FF 87 50 
   731)       743.5  Rx         023B  8  1D 6F 00 FF 00 00 80 68 
   732)       743.8  Rx         023C  8  DE FF FF FF FF FF 87 B7 
   733)       744.1  Rx         023D  8  1E 6F 00 FF 00 00 80 8F 
   734)       744.3  Rx         023E  8  DF FF FF FF FF FF 87 EA 
   735)       744.5  Rx         023F  8  1F 6F 00 FF 00 00 80 D2 
   736)       744.8  Rx         0240  8  E0 FF FF FF FF FF 87 60 
   737)       745.0  Rx         0241  8  20 6F 00 FF 00 00 80 58 
   738)       745.3  Rx         0242  8  E1 FF FF FF FF FF 87 3D 
   739)       745.5  Rx         0243  8  21 6F 00 FF 00 00 80 05 
   740)       745.8  Rx         0244  8  E2 FF FF FF FF FF 87 DA 
   741)       746.0  Rx         0245  8  22 6F 00 FF 00 00 80 E2 
   742)       746.3  Rx         0050  8  00 80 00 00 00 00 E0 5B 
   743)       746.5  Rx         0174  8  E0 7F 00 00 00 00 E0 C3 
   744)       746.7  Rx         0246  8  E3 FF FF FF FF FF 87 87 
   745)       747.0  Rx         0247  8  23 6F 00 FF 00 00 80 BF 
   746)       747.3  Rx         0248  8  E4 FF FF FF FF FF 87 09 
   747)       747.5  Rx         0249  8  24 6F 00 FF 00 00 80 31 
   748)       747.7  Rx         024A  8  E5 FF FF FF FF FF 87 54 
   749)       748.0  Rx         024B  8  25 6F 00 FF 00 00 80 6C 
   750)       748.2  Rx         024C  8  E6 FF FF FF FF FF 87 B3 
   751)       748.5  Rx         024D  8  26 6F 00 FF 00 00 80 8B 
   752)       748.7  Rx         024E  8  E7 FF FF FF FF FF 87 EE 
   753)       749.0  Rx         024F  8  27 6F 00 FF 00 00 80 D6 
   754)       759.0  Rx         0100  8  08 00 1E 03 A0 45 06 AF 
   755)       766.0  Rx         0050  8  00 80 00 00 00 00 F0 58 
   756)       766.3  Rx         0174  8  E0 7F 00 00 00 00 F0 AE 
   757)       779.0  Rx         0100  8  08 00 1E 01 A0 43 46 2E 
   758)       786.0  Rx         0050  8  00 80 00 00 00 00 00 9D 
   759)       786.3  Rx         0174  8  E0 7F 00 00 00 00 00 59 
   760)       799.1  Rx         0100  8  08 00 1E 03 A0 45 86 89 
   761)       806.1  Rx         0050  8  00 80 00 00 00 00 10 75 
   762)       806.3  Rx         0174  8  E0 7F 00 00 00 00 10 C1 
   763)       819.1  Rx         0100  8  08 00 1E 01 A0 43 C6 08 
   764)       826.1  Rx         0050  8  00 80 00 00 00 00 20 EE 
   765)       826.3  Rx         0174  8  E0 7F 00 00 00 00 20 03 
   766)       828.8  Rx         0200  8  C0 FF FF FF FF FF C7 1C 
   767)       829.1  Rx         0201  8  80 81 00 FF 00 00 C0 DE 
   768)       829.3  Rx         0202  8  C1 FF FF FF FF FF C7 41 
   769)       829.6  Rx         0203  8  81 81 00 FF 00 00 C0 83 
   770)       829.8  Rx         0204  8  C2 FF FF FF FF FF C7 A6 
   771)       830.1  Rx         0205  8  82 81 00 FF 00 00 C0 64 
   772)       830.3  Rx         0206  8  C3 FF FF FF FF FF C7 FB 
   773)       830.6  Rx         0207  8  83 81 00 FF 00 00 C0 39 
   774)       830.8  Rx         0208  8  C4 FF FF FF FF FF C7 75 
   775)       831.1  Rx         0209  8  84 81 00 FF 00 00 C0 B7 
   776)       831.3  Rx         020A  8  C5 FF FF FF FF FF C7 28 
   777)       831.6  Rx         020B  8  85 81 00 FF 00 00 C0 EA 
   778)       831.8  Rx         020C  8  C6 FF FF FF FF FF C7 CF 
   779)       832.0  Rx         020D  8  86 81 00 FF 00 00 C0 0D 
   780)       832.3  Rx         020E  8  C7 FF FF FF FF FF C7 92 
   781)       832.5  Rx         020F  8  87 81 00 FF 00 00 C0 50 
   782)       832.8  Rx         0210  8  C8 FF FF FF FF FF C7 CE 
   783)       833.0  Rx         0211  8  88 81 00 FF 00 00 C0 0C 
   784)       833.3  Rx         0212  8  C9 FF FF FF FF FF C7 93 
   785)       833.5  Rx         0213  8  89 81 00 FF 00 00 C0 51 
   786)       833.7  Rx         0214  8  CA FF FF FF FF FF C7 74 
   787)       834.0  Rx         0215  8  8A 81 00 FF 00 00 C0 B6 
   788)       834.2  Rx         0216  8  CB FF FF FF FF FF C7 29 
   789)       834.5  Rx         0217  8  8B 81 00 FF 00 00 C0 EB 
   790)       834.7  Rx         0218  8  CC FF FF FF FF FF C7 A7 
   791)       835.0  Rx         0219  8  8C 81 00 FF 00 00 C0 65 
   792)       835.2  Rx         021A  8  CD FF FF FF FF FF C7 FA 
   793)       835.4  Rx         021B  8  8D 81 00 FF 00 00 C0 38 
   794)       835.7  Rx         021C  8  CE FF FF FF FF FF C7 1D 
   795)       835.9  Rx         021D  8  8E 81 00 FF 00 00 C0 DF 
   796)       836.2  Rx         021E  8  CF FF FF FF FF FF C7 40 
   797)       836.4  Rx         021F  8  8F 81 00 FF 00 00 C0 82 
   798)       836.7  Rx         0220  8  D0 FF FF FF FF FF C7 A5 
   799)       836.9  Rx         0221  8  90 81 00 FF 00 00 C0 67 
   800)       837.2  Rx         0222  8  D1 FF FF FF FF FF C7 F8 
   801)       837.4  Rx         0223  8  91 81 00 FF 00 00 C0 3A 
   802)       837.6  Rx         0224  8  D2 FF FF FF FF FF C7 1F 
   803)       837.9  Rx         0225  8  92 81 00 FF 00 00 C0 DD 
   804)       838.1  Rx         0226  8  D3 FF FF FF FF FF C7 42 
   805)       838.4  Rx         0227  8  93 81 00 FF 00 00 C0 80 
   806)       838.6  Rx         0228  8  D4 FF FF FF FF FF C7 CC 
   807)       838.9  Rx         0229  8  94 81 00 FF 00 00 C0 0E 
   808)       839.1  Rx         0100  8  08 00 1E 03 A0 45 06 AF 
   809)       839.3  Rx         022A  8  D5 FF FF FF FF FF C7 91 
   810)       839.6  Rx         022B  8  95 81 00 FF 00 00 C0 53 
   811)       839.8  Rx         022C  8  D6 FF FF FF FF FF C7 76 
   812)       840.1  Rx         022D  8  96 81 00 FF 00 00 C0 B4 
   813)       840.4  Rx         022E  8  D7 FF FF FF FF FF C7 2B 
   814)       840.6  Rx         022F  8  97 81 00 FF 00 00 C0 E9 
   815)       840.8  Rx         0230  8  D8 FF FF FF FF FF C7 77 
   816)       841.1  Rx         0231  8  98 81 00 FF 00 00 C0 B5 
   817)       841.3  Rx         0232  8  D9 FF FF FF FF FF C7 2A 
   818)       841.5  Rx         0233  8  99 81 00 FF 00 00 C0 E8 
   819)       841.8  Rx         0234  8  DA FF FF FF FF FF C7 CD 
   820)       842.1  Rx         0235  8  9A 81 00 FF 00 00 C0 0F 
   821)       842.3  Rx         0236  8  DB FF FF FF FF FF C7 90 
   822)       842.5  Rx         0237  8  9B 81 00 FF 00 00 C0 52 
   823)       842.8  Rx         0238  8  DC FF FF FF FF FF C7 1E 
   824)       843.0  Rx         0239  8  9C 81 00 FF 00 00 C0 DC 
   825)       843.3  Rx         023A  8  DD FF FF FF FF FF C7 43 
   826)       843.5  Rx         023B  8  9D 81 00 FF 00 00 C0 81 
   827)       843.8  Rx         023C  8  DE FF FF FF FF FF C7 A4 
   828)       844.0  Rx         023D  8  9E 81 00 FF 00 00 C0 66 
   829)       844.3  Rx         023E  8  DF FF FF FF FF FF C7 F9 
   830)       844.5  Rx         023F  8  9F 81 00 FF 00 00 C0 3B 
   831)       844.7  Rx         0240  8  E0 FF FF FF FF FF C7 73 
   832)       845.0  Rx         0241  8  A0 81 00 FF 00 00 C0 B1 
   833)       845.3  Rx         0242  8  E1 FF FF FF FF FF C7 2E 
   834)       845.5  Rx         0243  8  A1 81 00 FF 00 00 C0 EC 
   835)       845.7  Rx         0244  8  E2 FF FF FF FF FF C7 C9 
   836)       846.0  Rx         0245  8  A2 81 00 FF 00 00 C0 0B 
   837)       846.2  Rx         0050  8  00 80 00 00 00 00 30 7E 
   838)       846.5  Rx         0174  8  CF 7F 00 00 00 00 30 B8 
   839)       846.7  Rx         0246  8  E3 FF FF FF FF FF C7 94 
   840)       847.0  Rx         0247  8  A3 81 00 FF 00 00 C0 56 
   841)       847.2  Rx         0248  8  E4 FF FF FF FF FF C7 1A 
   842)       847.4  Rx         0249  8  A4 81 00 FF 00 00 C0 D8 
   843)       847.7  Rx         024A  8  E5 FF FF FF FF FF C7 47 
   844)       847.9  Rx         024B  8  A5 81 00 FF 00 00 C0 85 
   845)       848.2  Rx         024C  8  E6 FF FF FF FF FF C7 A0 
   846)       848.5  Rx         024D  8  A6 81 00 FF 00 00 C0 62 
   847)       848.7  Rx         024E  8  E7 FF FF FF FF FF C7 FD 
   848)       848.9  Rx         024F  8  A7 81 00 FF 00 00 C0 3F 
   849)       859.0  Rx         0100  8  08 00 1E 01 A0 43 46 2E 
   850)       866.0  Rx         0050  8  00 80 00 00 00 00 40 BE 
   851)       866.3  Rx         0174  8  E0 7F 00 00 00 00 40 30 
   852)       879.1  Rx         0100  8  08 00 1E 03 A0 45 86 89 
   853)       886.0  Rx         0050  8  00 80 00 00 00 00 50 3F 
   854)       886.3  Rx         0174  8  E0 7F 00 00 00 00 50 4A 
   855)       899.1  Rx         0100  8  08 00 1E 01 A0 43 C6 08 
   856)       906.1  Rx         0050  8  00 80 00 00 00 00 60 C5 
   857)       906.3  Rx         0174  8  E0 7F 00 00 00 00 60 00 
   858)       919.0  Rx         0100  8  08 00 1E 03 A0 45 06 AF 
   859)       926.0  Rx         0050  8  00 80 00 00 00 00 70 DC 
   860)       926.3  Rx         0174  8  CF 7F 00 00 00 00 70 75 
   861)       938.8  Rx         0200  8  C0 FF FF FF FF FF 07 29 
   862)       939.1  Rx         0201  8  40 75 00 FF 00 00 00 5D 
   863)       939.3  Rx         0202  8  C1 FF FF FF FF FF 07 74 
   864)       939.6  Rx         0203  8  41 75 00 FF 00 00 00 00 
   865)       939.8  Rx         0204  8  C2 FF FF FF FF FF 07 93 
   866)       940.1  Rx         0205  8  42 75 00 FF 00 00 00 E7 
   867)       940.3  Rx         0100  8  08 00 1E 01 A0 43 46 2E 
   868)       940.5  Rx         0206  8  C3 FF FF FF FF FF 07 CE 
   869)       940.8  Rx         0207  8  43 75 00 FF 00 00 00 BA 
   870)       941.0  Rx         0208  8  C4 FF FF FF FF FF 07 40 
   871)       941.3  Rx         0209  8  44 75 00 FF 00 00 00 34 
   872)       941.5  Rx         020A  8  C5 FF FF FF FF FF 07 1D 
   873)       941.8  Rx         020B  8  45 75 00 FF 00 00 00 69 
   874)       942.0  Rx         020C  8  C6 FF FF FF FF FF 07 FA 
   875)       942.3  Rx         020D  8  46 75 00 FF 00 00 00 8E 
   876)       942.5  Rx         020E  8  C7 FF FF FF FF FF 07 A7 
   877)       942.8  Rx         020F  8  47 75 00 FF 00 00 00 D3 
   878)       943.0  Rx         0210  8  C8 FF FF FF FF FF 07 FB 
   879)       943.3  Rx         0211  8  48 75 00 FF 00 00 00 8F 
   880)       943.5  Rx         0212  8  C9 FF FF FF FF FF 07 A6 
   881)       943.7  Rx         0213  8  49 75 00 FF 00 00 00 D2 
   882)       944.0  Rx         0214  8  CA FF FF FF FF FF 07 41 
   883)       944.2  Rx         0215  8  4A 75 00 FF 00 00 00 35 
   884)       944.5  Rx         0216  8  CB FF FF FF FF FF 07 1C 
   885)       944.7  Rx         0217  8  4B 75 00 FF 00 00 00 68 
   886)       945.0  Rx         0218  8  CC FF FF FF FF FF 07 92 
   887)       945.2  Rx         0219  8  4C 75 00 FF 00 00 00 E6 
   888)       945.4  Rx         021A  8  CD FF FF FF FF FF 07 CF 
   889)       945.7  Rx         021B  8  4D 75 00 FF 00 00 00 BB 
   890)       946.0  Rx         021C  8  CE FF FF FF FF FF 07 28 
   891)       946.2  Rx         0050  8  00 80 00 00 00 00 80 06 
   892)       946.4  Rx         0174  8  E0 7F 00 00 00 00 80 A7 
   893)       946.7  Rx         021D  8  4E 75 00 FF 00 00 00 5C 
   894)       946.9  Rx         021E  8  CF FF FF FF FF FF 07 75 
   895)       947.1  Rx         021F  8  4F 75 00 FF 00 00 00 01 
   896)       947.4  Rx         0220  8  D0 FF FF FF FF FF 07 90 
   897)       947.7  Rx         0221  8  50 75 00 FF 00 00 00 E4 
   898)       947.9  Rx         0222  8  D1 FF FF FF FF FF 07 CD 
   899)       948.1  Rx         0223  8  51 75 00 FF 00 00 00 B9 
   900)       948.4  Rx         0224  8  D2 FF FF FF FF FF 07 2A 
   901)       948.6  Rx         0225  8  52 75 00 FF 00 00 00 5E 
   902)       948.9  Rx         0226  8  D3 FF FF FF FF FF 07 77 
   903)       949.1  Rx         0227  8  53 75 00 FF 00 00 00 03 
   904)       949.4  Rx         0228  8  D4 FF FF FF FF FF 07 F9 
   905)       949.6  Rx         0229  8  54 75 00 FF 00 00 00 8D 
   906)       949.9  Rx         022A  8  D5 FF FF FF FF FF 07 A4 
   907)       950.1  Rx         022B  8  55 75 00 FF 00 00 00 D0 
   908)       950.3  Rx         022C  8  D6 FF FF FF FF FF 07 43 
   909)       950.6  Rx         022D  8  56 75 00 FF 00 00 00 37 
   910)       950.9  Rx         022E  8  D7 FF FF FF FF FF 07 1E 
   911)       951.1  Rx         022F  8  57 75 00 FF 00 00 00 6A 
   912)       951.3  Rx         0230  8  D8 FF FF FF FF FF 07 42 
   913)       951.6  Rx         0231  8  58 75 00 FF 00 00 00 36 
   914)       951.8  Rx         0232  8  D9 FF FF FF FF FF 07 1F 
   915)       952.1  Rx         0233  8  59 75 00 FF 00 00 00 6B 
   916)       952.4  Rx         0234  8  DA FF FF FF FF FF 07 F8 
   917)       952.6  Rx         0235  8  5A 75 00 FF 00 00 00 8C 
   918)       952.8  Rx         0236  8  DB FF FF FF FF FF 07 A5 
   919)       953.1  Rx         0237  8  5B 75 00 FF 00 00 00 D1 
   920)       953.3  Rx         0238  8  DC FF FF FF FF FF 07 2B 
   921)       953.5  Rx         0239  8  5C 75 00 FF 00 00 00 5F 
   922)       953.8  Rx         023A  8  DD FF FF FF FF FF 07 76 
   923)       954.1  Rx         023B  8  5D 75 00 FF 00 00 00 02 
   924)       954.3  Rx         023C  8  DE FF FF FF FF FF 07 91 
   925)       954.5  Rx         023D  8  5E 75 00 FF 00 00 00 E5 
   926)       954.8  Rx         023E  8  DF FF FF FF FF FF 07 CC 
   927)       955.0  Rx         023F  8  5F 75 00 FF 00 00 00 B8 
   928)       955.3  Rx         0240  8  E0 FF FF FF FF FF 07 46 
   929)       955.6  Rx         0241  8  60 75 00 FF 00 00 00 32 
   930)       955.8  Rx         0242  8  E1 FF FF FF FF FF 07 1B 
   931)       956.0  Rx         0243  8  61 75 00 FF 00 00 00 6F 
   932)       956.3  Rx         0244  8  E2 FF FF FF FF FF 07 FC 
   933)       956.5  Rx         0245  8  62 75 00 FF 00 00 00 88 
   934)       956.8  Rx         0246  8  E3 FF FF FF FF FF 07 A1 
   935)       957.0  Rx         0247  8  63 75 00 FF 00 00 00 D5 
   936)       957.3  Rx         0248  8  E4 FF FF FF FF FF 07 2F 
   937)       957.5  Rx         0249  8  64 75 00 FF 00 00 00 5B 
   938)       957.8  Rx         024A  8  E5 FF FF FF FF FF 07 72 
   939)       958.0  Rx         024B  8  65 75 00 FF 00 00 00 06 
   940)       958.2  Rx         024C  8  E6 FF FF FF FF FF 07 95 
   941)       958.5  Rx         024D  8  66 75 00 FF 00 00 00 E1 
   942)       958.8  Rx         024E  8  E7 FF FF FF FF FF 07 C8 
   943)       959.0  Rx         024F  8  67 75 00 FF 00 00 00 BC 
   944)       959.2  Rx         0100  8  08 00 1E 03 A0 45 86 89 
   945)       966.0  Rx         0050  8  00 80 00 00 00 00 90 98 
   946)       966.3  Rx         0174  8  E0 7F 00 00 00 00 90 D1 
   947)       979.0  Rx         0100  8  08 00 1E 01 A0 43 C6 08 
   948)       986.1  Rx         0050  8  00 80 00 00 00 00 A0 14 
   949)       986.3  Rx         0174  8  E0 7F 00 00 00 00 A0 07 
   950)       999.0  Rx         0100  8  08 00 1E 03 A0 45 06 AF 
   951)      1006.0  Rx         0050  8  00 80 00 00 00 00 B0 1A 
   952)      1006.3  Rx         0174  8  E0 7F 00 00 00 00 B0 05 
   953)      1019.0  Rx         0100  8  08 00 1E 01 A0 43 46 2E 
   954)      1026.0  Rx         0050  8  00 80 00 00 00 00 C0 97 
   955)      1026.3  Rx         0174  8  E0 7F 00 00 00 00 C0 14 
   956)      1038.8  Rx         0200  8  C0 FF FF FF FF FF 47 3A 
   957)      1039.1  Rx         0201  8  40 86 00 FF 00 00 40 48 
   958)      1039.3  Rx         0202  8  C1 FF FF FF FF FF 47 67 
   959)      1039.6  Rx         0203  8  41 86 00 FF 00 00 40 15 
   960)      1039.8  Rx         0204  8  C2 FF FF FF FF FF 47 80 
   961)      1040.0  Rx         0205  8  42 86 00 FF 00 00 40 F2 
   962)      1040.3  Rx         0100  8  08 00 1E 03 A0 45 86 89 
   963)      1040.6  Rx         0206  8  C3 FF FF FF FF FF 47 DD 
   964)      1040.8  Rx         0207  8  43 86 00 FF 00 00 40 AF 
   965)      1041.0  Rx         0208  8  C4 FF FF FF FF FF 47 53 
   966)      1041.3  Rx         0209  8  44 86 00 FF 00 00 40 21 
   967)      1041.5  Rx         020A  8  C5 FF FF FF FF FF 47 0E 
   968)      1041.8  Rx         020B  8  45 86 00 FF 00 00 40 7C 
   969)      1042.0  Rx         020C  8  C6 FF FF FF FF FF 47 E9 
   970)      1042.3  Rx         020D  8  46 86 00 FF 00 00 40 9B 
   971)      1042.5  Rx         020E  8  C7 FF FF FF FF FF 47 B4 
   972)      1042.7  Rx         020F  8  47 86 00 FF 00 00 40 C6 
   973)      1043.0  Rx         0210  8  C8 FF FF FF FF FF 47 E8 
   974)      1043.2  Rx         0211  8  48 86 00 FF 00 00 40 9A 
   975)      1043.5  Rx         0212  8  C9 FF FF FF FF FF 47 B5 
   976)      1043.7  Rx         0213  8  49 86 00 FF 00 00 40 C7 
   977)      1044.0  Rx         0214  8  CA FF FF FF FF FF 47 52 
   978)      1044.2  Rx         0215  8  4A 86 00 FF 00 00 40 20 
   979)      1044.4  Rx         0216  8  CB FF FF FF FF FF 47 0F 
   980)      1044.7  Rx         0217  8  4B 86 00 FF 00 00 40 7D 
   981)      1045.0  Rx         0218  8  CC FF FF FF FF FF 47 81 
   982)      1045.2  Rx         0219  8  4C 86 00 FF 00 00 40 F3 
   983)      1045.4  Rx         021A  8  CD FF FF FF FF FF 47 DC 
   984)      1045.6  Rx         021B  8  4D 86 00 FF 00 00 40 AE 
   985)      1045.9  Rx         021C  8  CE FF FF FF FF FF 47 3B 
   986)      1046.2  Rx         0050  8  00 80 00 00 00 00 D0 84 
   987)      1046.4  Rx         0174  8  E0 7F 00 00 00 00 D0 70 
   988)      1046.6  Rx         021D  8  4E 86 00 FF 00 00 40 49 
   989)      1046.9  Rx         021E  8  CF FF FF FF FF FF 47 66 
   990)      1047.1  Rx         021F  8  4F 86 00 FF 00 00 40 14 
   991)      1047.3  Rx         0220  8  D0 FF FF FF FF FF 47 83 
   992)      1047.6  Rx         0221  8  50 86 00 FF 00 00 40 F1 
   993)      1047.9  Rx         0222  8  D1 FF FF FF FF FF 47 DE 
   994)      1048.1  Rx         0223  8  51 86 00 FF 00 00 40 AC 
   995)      1048.3  Rx         0224  8  D2 FF FF FF FF FF 47 39 
   996)      1048.6  Rx         0225  8  52 86 00 FF 00 00 40 4B 
   997)      1048.8  Rx         0226  8  D3 FF FF FF FF FF 47 64 
   998)      1049.1  Rx         0227  8  53 86 00 FF 00 00 40 16 
   999)      1049.3  Rx         0228  8  D4 FF FF FF FF FF 47 EA 
  1000)      1049.6  Rx         0229  8  54 86 00 FF 00 00 40 98 
  1001)      1049.8  Rx         022A  8  D5 FF FF FF FF FF 47 B7 
  1002)      1050.0  Rx         022B  8  55 86 00 FF 00 00 40 C5 
  1003)      1050.3  Rx         022C  8  D6 FF FF FF FF FF 47 50 
  1004)      1050.5  Rx         022D  8  56 86 00 FF 00 00 40 22 
  1005)      1050.8  Rx         022E  8  D7 FF FF FF FF FF 47 0D 
  1006)      1051.0  Rx         022F  8  57 86 00 FF 00 00 40 7F 
  1007)      1051.3  Rx         0230  8  D8 FF FF FF FF FF 47 51 
  1008)      1051.5  Rx         0231  8  58 86 00 FF 00 00 40 23 
  1009)      1051.7  Rx         0232  8  D9 FF FF FF FF FF 47 0C 
  1010)      1052.0  Rx         0233  8  59 86 00 FF 00 00 40 7E 
  1011)      1052.3  Rx         0234  8  DA FF FF FF FF FF 47 EB 
  1012)      1052.5  Rx         0235  8  5A 86 00 FF 00 00 40 99 
  1013)      1052.7  Rx         0236  8  DB FF FF FF FF FF 47 B6 
  1014)      1053.0  Rx         0237  8  5B 86 00 FF 00 00 40 C4 
  1015)      1053.2  Rx         0238  8  DC FF FF FF FF FF 47 38 
  1016)      1053.4  Rx         0239  8  5C 86 00 FF 00 00 40 4A 
  1017)      1053.7  Rx         023A  8  DD FF FF FF FF FF 47 65 
  1018)      1054.0  Rx         023B  8  5D 86 00 FF 00 00 40 17 
  1019)      1054.2  Rx         023C  8  DE FF FF FF FF FF 47 82 
  1020)      1054.4  Rx         023D  8  5E 86 00 FF 00 00 40 F0 
  1021)      1054.7  Rx         023E  8  DF FF FF FF FF FF 47 DF 
  1022)      1054.9  Rx         023F  8  5F 86 00 FF 00 00 40 AD 
  1023)      1055.2  Rx         0240  8  E0 FF FF FF FF FF 47 55 
  1024)      1055.4  Rx         0241  8  60 86 00 FF 00 00 40 27 
  1025)      1055.7  Rx         0242  8  E1 FF FF FF FF FF 47 08 
  1026)      1055.9  Rx         0243  8  61 86 00 FF 00 00 40 7A 
  1027)      1056.2  Rx         0244  8  E2 FF FF FF FF FF 47 EF 
  1028)      1056.4  Rx         0245  8  62 86 00 FF 00 00 40 9D 
  1029)      1056.6  Rx         0246  8  E3 FF FF FF FF FF 47 B2 
  1030)      1056.9  Rx         0247  8  63 86 00 FF 00 00 40 C0 
  1031)      1057.2  Rx         0248  8  E4 FF FF FF FF FF 47 3C 
  1032)      1057.4  Rx         0249  8  64 86 00 FF 00 00 40 4E 
  1033)      1057.6  Rx         024A  8  E5 FF FF FF FF FF 47 61 
  1034)      1057.9  Rx         024B  8  65 86 00 FF 00 00 40 13 
  1035)      1058.1  Rx         024C  8  E6 FF FF FF FF FF 47 86 
  1036)      1058.4  Rx         024D  8  66 86 00 FF 00 00 40 F4 
  1037)      1058.6  Rx         024E  8  E7 FF FF FF FF FF 47 DB 
  1038)      1058.9  Rx         024F  8  67 86 00 FF 00 00 40 A9 
  1039)      1059.1  Rx         0100  8  08 00 1E 01 A0 43 C6 08 
  1040)      1066.0  Rx         0050  8  00 80 00 00 00 00 E0 AF 
  1041)      1066.3  Rx         0174  8  E0 7F 00 00 00 00 E0 51 
  1042)      1079.0  Rx         0100  8  08 00 1E 03 A0 45 06 AF 
  1043)      1086.0  Rx         0050  8  00 80 00 00 00 00 F0 53 
  1044)      1086.3  Rx         0174  8  CF 7F 00 00 00 00 F0 7F 
  1045)      1099.1  Rx         0100  8  08 00 1E 01 A0 43 46 2E 
  1046)      1106.1  Rx         0050  8  00 80 00 00 00 00 00 52 
  1047)      1106.3  Rx         0174  8  E0 7F 00 00 00 00 00 BC 
  1048)      1119.0  Rx         0100  8  08 00 1E 03 A0 45 86 89 
  1049)      1126.1  Rx         0050  8  00 80 00 00 00 00 10 FB 
  1050)      1126.3  Rx         0174  8  E0 7F 00 00 00 00 10 1A 
  1051)      1128.8  Rx         0200  8  C0 FF FF FF FF FF 87 0F 
  1052)      1129.1  Rx         0201  8  00 74 00 FF 00 00 80 E3 
  1053)      1129.3  Rx         0202  8  C1 FF FF FF FF FF 87 52 
  1054)      1129.6  Rx         0203  8  01 74 00 FF 00 00 80 BE 
  1055)      1129.8  Rx         0204  8  C2 FF FF FF FF FF 87 B5 
  1056)      1130.1  Rx         0205  8  02 74 00 FF 00 00 80 59 
  1057)      1130.3  Rx         0206  8  C3 FF FF FF FF FF 87 E8 
  1058)      1130.6  Rx         0207  8  03 74 00 FF 00 00 80 04 
  1059)      1130.8  Rx         0208  8  C4 FF FF FF FF FF 87 66 
  1060)      1131.1  Rx         0209  8  04 74 00 FF 00 00 80 8A 
  1061)      1131.3  Rx         020A  8  C5 FF FF FF FF FF 87 3B 
  1062)      1131.6  Rx         020B  8  05 74 00 FF 00 00 80 D7 
  1063)      1131.8  Rx         020C  8  C6 FF FF FF FF FF 87 DC 
  1064)      1132.0  Rx         020D  8  06 74 00 FF 00 00 80 30 
  1065)      1132.3  Rx         020E  8  C7 FF FF FF FF FF 87 81 
  1066)      1132.5  Rx         020F  8  07 74 00 FF 00 00 80 6D 
  1067)      1132.8  Rx         0210  8  C8 FF FF FF FF FF 87 DD 
  1068)      1133.1  Rx         0211  8  08 74 00 FF 00 00 80 31 
  1069)      1133.3  Rx         0212  8  C9 FF FF FF FF FF 87 80 
  1070)      1133.5  Rx         0213  8  09 74 00 FF 00 00 80 6C 
  1071)      1133.8  Rx         0214  8  CA FF FF FF FF FF 87 67 
  1072)      1134.0  Rx         0215  8  0A 74 00 FF 00 00 80 8B 
  1073)      1134.3  Rx         0216  8  CB FF FF FF FF FF 87 3A 
  1074)      1134.5  Rx         0217  8  0B 74 00 FF 00 00 80 D6 
  1075)      1134.8  Rx         0218  8  CC FF FF FF FF FF 87 B4 
  1076)      1135.0  Rx         0219  8  0C 74 00 FF 00 00 80 58 
  1077)      1135.2  Rx         021A  8  CD FF FF FF FF FF 87 E9 
  1078)      1135.5  Rx         021B  8  0D 74 00 FF 00 00 80 05 
  1079)      1135.7  Rx         021C  8  CE FF FF FF FF FF 87 0E 
  1080)      1136.0  Rx         021D  8  0E 74 00 FF 00 00 80 E2 
  1081)      1136.2  Rx         021E  8  CF FF FF FF FF FF 87 53 
  1082)      1136.5  Rx         021F  8  0F 74 00 FF 00 00 80 BF 
  1083)      1136.7  Rx         0220  8  D0 FF FF FF FF FF 87 B6 
  1084)      1137.0  Rx         0221  8  10 74 00 FF 00 00 80 5A 
  1085)      1137.2  Rx         0222  8  D1 FF FF FF FF FF 87 EB 
  1086)      1137.5  Rx         0223  8  11 74 00 FF 00 00 80 07 
  1087)      1137.7  Rx         0224  8  D2 FF FF FF FF FF 87 0C 
  1088)      1138.0  Rx         0225  8  12 74 00 FF 00 00 80 E0 
  1089)      1138.2  Rx         0226  8  D3 FF FF FF FF FF 87 51 
  1090)      1138.4  Rx         0227  8  13 74 00 FF 00 00 80 BD 
  1091)      1138.7  Rx         0228  8  D4 FF FF FF FF FF 87 DF 
  1092)      1138.9  Rx         0229  8  14 74 00 FF 00 00 80 33 
  1093)      1139.2  Rx         0100  8  08 00 1E 01 A0 43 C6 08 
  1094)      1139.4  Rx         022A  8  D5 FF FF FF FF FF 87 82 
  1095)      1139.7  Rx         022B  8  15 74 00 FF 00 00 80 6E 
  1096)      1139.9  Rx         022C  8  D6 FF FF FF FF FF 87 65 
  1097)      1140.1  Rx         022D  8  16 74 00 FF 00 00 80 89 
  1098)      1140.4  Rx         022E  8  D7 FF FF FF FF FF 87 38 
  1099)      1140.7  Rx         022F  8  17 74 00 FF 00 00 80 D4 
  1100)      1140.9  Rx         0230  8  D8 FF FF FF FF FF 87 64 
  1101)      1141.1  Rx         0231  8  18 74 00 FF 00 00 80 88 
  1102)      1141.4  Rx         0232  8  D9 FF FF FF FF FF 87 39 
  1103)      1141.6  Rx         0233  8  19 74 00 FF 00 00 80 D5 
  1104)      1141.9  Rx         0234  8  DA FF FF FF FF FF 87 DE 
  1105)      1142.1  Rx         0235  8  1A 74 00 FF 00 00 80 32 
  1106)      1142.4  Rx         0236  8  DB FF FF FF FF FF 87 83 
  1107)      1142.6  Rx         0237  8  1B 74 00 FF 00 00 80 6F 
  1108)      1142.9  Rx         0238  8  DC FF FF FF FF FF 87 0D 
  1109)      1143.1  Rx         0239  8  1C 74 00 FF 00 00 80 E1 
  1110)      1143.3  Rx         023A  8  DD FF FF FF FF FF 87 50 
  1111)      1143.6  Rx         023B  8  1D 74 00 FF 00 00 80 BC 
  1112)      1143.9  Rx         023C  8  DE FF FF FF FF FF 87 B7 
  1113)      1144.1  Rx         023D  8  1E 74 00 FF 00 00 80 5B 
  1114)      1144.4  Rx         023E  8  DF FF FF FF FF FF 87 EA 
  1115)      1144.6  Rx         023F  8  1F 74 00 FF 00 00 80 06 
  1116)      1144.8  Rx         0240  8  E0 FF FF FF FF FF 87 60 
  1117)      1145.1  Rx         0241  8  20 74 00 FF 00 00 80 8C 
  1118)      1145.3  Rx         0242  8  E1 FF FF FF FF FF 87 3D 
  1119)      1145.6  Rx         0243  8  21 74 00 FF 00 00 80 D1 
  1120)      1145.8  Rx         0244  8  E2 FF FF FF FF FF 87 DA 
  1121)      1146.1  Rx         0050  8  00 80 00 00 00 00 20 6E 
  1122)      1146.3  Rx         0174  8  CF 7F 00 00 00 00 20 34 
  1123)      1146.6  Rx         0245  8  22 74 00 FF 00 00 80 36 
  1124)      1146.8  Rx         0246  8  E3 FF FF FF FF FF 87 87 
  1125)      1147.1  Rx         0247  8  23 74 00 FF 00 00 80 6B 
  1126)      1147.3  Rx         0248  8  E4 FF FF FF FF FF 87 09 
  1127)      1147.6  Rx         0249  8  24 74 00 FF 00 00 80 E5 
  1128)      1147.8  Rx         024A  8  E5 FF FF FF FF FF 87 54 
  1129)      1148.0  Rx         024B  8  25 74 00 FF 00 00 80 B8 
  1130)      1148.3  Rx         024C  8  E6 FF FF FF FF FF 87 B3 
  1131)      1148.5  Rx         024D  8  26 74 00 FF 00 00 80 5F 
  1132)      1148.8  Rx         024E  8  E7 FF FF FF FF FF 87 EE 
  1133)      1149.1  Rx         024F  8  27 74 00 FF 00 00 80 02 
  1134)      1159.0  Rx         0100  8  08 00 1E 03 A0 45 06 AF 
  1135)      1166.1  Rx         0050  8  00 80 00 00 00 00 30 58 
  1136)      1166.3  Rx         0174  8  E0 7F 00 00 00 00 30 A1 
  1137)      1179.0  Rx         0100  8  08 00 1E 01 A0 43 46 2E 
  1138)      1186.1  Rx         0050  8  00 80 00 00 00 00 40 77 
  1139)      1186.3  Rx         0174  8  E0 7F 00 00 00 00 40 08 
  1140)      1199.0  Rx         0100  8  08 00 1E 03 A0 45 86 89 
  1141)      1206.1  Rx         0050  8  00 80 00 00 00 00 50 FF 
  1142)      1206.3  Rx         0174  8  E0 7F 00 00 00 00 50 E8 
  1143)      1219.0  Rx         0100  8  08 00 1E 01 A0 43 C6 08 
  1144)      1226.1  Rx         0050  8  00 80 00 00 00 00 60 F0 
  1145)      1226.3  Rx         0174  8  E0 7F 00 00 00 00 60 9B 
  1146)      1228.8  Rx         0200  8  C0 FF FF FF FF FF C7 1C 
  1147)      1229.1  Rx         0201  8  40 80 00 FF 00 00 C0 E7 
  1148)      1229.3  Rx         0202  8  C1 FF FF FF FF FF C7 41 
  1149)      1229.6  Rx         0203  8  41 80 00 FF 00 00 C0 BA 
  1150)      1229.8  Rx         0204  8  C2 FF FF FF FF FF C7 A6 
  1151)      1230.0  Rx         0205  8  42 80 00 FF 00 00 C0 5D 
  1152)      1230.3  Rx         0206  8  C3 FF FF FF FF FF C7 FB 
  1153)      1230.6  Rx         0207  8  43 80 00 FF 00 00 C0 00 
  1154)      1230.8  Rx         0208  8  C4 FF FF FF FF FF C7 75 
  1155)      1231.1  Rx         0209  8  44 80 00 FF 00 00 C0 8E 
  1156)      1231.3  Rx         020A  8  C5 FF FF FF FF FF C7 28 
  1157)      1231.5  Rx         020B  8  45 80 00 FF 00 00 C0 D3 
  1158)      1231.8  Rx         020C  8  C6 FF FF FF FF FF C7 CF 
  1159)      1232.0  Rx         020D  8  46 80 00 FF 00 00 C0 34 
  1160)      1232.3  Rx         020E  8  C7 FF FF FF FF FF C7 92 
  1161)      1232.5  Rx         020F  8  47 80 00 FF 00 00 C0 69 
  1162)      1232.8  Rx         0210  8  C8 FF FF FF FF FF C7 CE 
  1163)      1233.0  Rx         0211  8  48 80 00 FF 00 00 C0 35 
  1164)      1233.2  Rx         0212  8  C9 FF FF FF FF FF C7 93 
  1165)      1233.5  Rx         0213  8  49 80 00 FF 00 00 C0 68 
  1166)      1233.8  Rx         0214  8  CA FF FF FF FF FF C7 74 
  1167)      1234.0  Rx         0215  8  4A 80 00 FF 00 00 C0 8F 
  1168)      1234.2  Rx         0216  8  CB FF FF FF FF FF C7 29 
  1169)      1234.5  Rx         0217  8  4B 80 00 FF 00 00 C0 D2 
  1170)      1234.7  Rx         0218  8  CC FF FF FF FF FF C7 A7 
  1171)      1234.9  Rx         0219  8  4C 80 00 FF 00 00 C0 5C 
  1172)      1235.2  Rx         021A  8  CD FF FF FF FF FF C7 FA 
  1173)      1235.5  Rx         021B  8  4D 80 00 FF 00 00 C0 01 
  1174)      1235.7  Rx         021C  8  CE FF FF FF FF FF C7 1D 
  1175)      1235.9  Rx         021D  8  4E 80 00 FF 00 00 C0 E6 
  1176)      1236.2  Rx         021E  8  CF FF FF FF FF FF C7 40 
  1177)      1236.4  Rx         021F  8  4F 80 00 FF 00 00 C0 BB 
  1178)      1236.7  Rx         0220  8  D0 FF FF FF FF FF C7 A5 
  1179)      1236.9  Rx         0221  8  50 80 00 FF 00 00 C0 5E 
  1180)      1237.2  Rx         0222  8  D1 FF FF FF FF FF C7 F8 
  1181)      1237.4  Rx         0223  8  51 80 00 FF 00 00 C0 03 
  1182)      1237.7  Rx         0224  8  D2 FF FF FF FF FF C7 1F 
  1183)      1237.9  Rx         0225  8  52 80 00 FF 00 00 C0 E4 
  1184)      1238.1  Rx         0226  8  D3 FF FF FF FF FF C7 42 
  1185)      1238.4  Rx         0227  8  53 80 00 FF 00 00 C0 B9 
  1186)      1238.6  Rx         0228  8  D4 FF FF FF FF FF C7 CC 
  1187)      1238.9  Rx         0229  8  54 80 00 FF 00 00 C0 37 
  1188)      1239.1  Rx         0100  8  08 00 1E 03 A0 45 06 AF 
  1189)      1239.3  Rx         022A  8  D5 FF FF FF FF FF C7 91 
  1190)      1239.6  Rx         022B  8  55 80 00 FF 00 00 C0 6A 
  1191)      1239.9  Rx         022C  8  D6 FF FF FF FF FF C7 76 
  1192)      1240.1  Rx         022D  8  56 80 00 FF 00 00 C0 8D 
  1193)      1240.4  Rx         022E  8  D7 FF FF FF FF FF C7 2B 
  1194)      1240.6  Rx         022F  8  57 80 00 FF 00 00 C0 D0 
  1195)      1240.8  Rx         0230  8  D8 FF FF FF FF FF C7 77 
  1196)      1241.1  Rx         0231  8  58 80 00 FF 00 00 C0 8C 
  1197)      1241.3  Rx         0232  8  D9 FF FF FF FF FF C7 2A 
  1198)      1241.6  Rx         0233  8  59 80 00 FF 00 00 C0 D1 
  1199)      1241.8  Rx         0234  8  DA FF FF FF FF FF C7 CD 
  1200)      1242.1  Rx         0235  8  5A 80 00 FF 00 00 C0 36 
  1201)      1242.3  Rx         0236  8  DB FF FF FF FF FF C7 90 
  1202)      1242.6  Rx         0237  8  5B 80 00 FF 00 00 C0 6B 
  1203)      1242.8  Rx         0238  8  DC FF FF FF FF FF C7 1E 
  1204)      1243.1  Rx         0239  8  5C 80 00 FF 00 00 C0 E5 
  1205)      1243.3  Rx         023A  8  DD FF FF FF FF FF C7 43 
  1206)      1243.6  Rx         023B  8  5D 80 00 FF 00 00 C0 B8 
  1207)      1243.8  Rx         023C  8  DE FF FF FF FF FF C7 A4 
  1208)      1244.0  Rx         023D  8  5E 80 00 FF 00 00 C0 5F 
  1209)      1244.3  Rx         023E  8  DF FF FF FF FF FF C7 F9 
  1210)      1244.5  Rx         023F  8  5F 80 00 FF 00 00 C0 02 
  1211)      1244.8  Rx         0240  8  E0 FF FF FF FF FF C7 73 
  1212)      1245.1  Rx         0241  8  60 80 00 FF 00 00 C0 88 
  1213)      1245.3  Rx         0242  8  E1 FF FF FF FF FF C7 2E 
  1214)      1245.5  Rx         0243  8  61 80 00 FF 00 00 C0 D5 
  1215)      1245.8  Rx         0244  8  E2 FF FF FF FF FF C7 C9 
  1216)      1246.0  Rx         0245  8  62 80 00 FF 00 00 C0 32 
  1217)      1246.3  Rx         0050  8  00 80 00 00 00 00 70 FF 
  1218)      1246.5  Rx         0174  8  E0 7F 00 00 00 00 70 51 
  1219)      1246.8  Rx         0246  8  E3 FF FF FF FF FF C7 94 
  1220)      1247.0  Rx         0247  8  63 80 00 FF 00 00 C0 6F 
  1221)      1247.2  Rx         0248  8  E4 FF FF FF FF FF C7 1A 
  1222)      1247.5  Rx         0249  8  64 80 00 FF 00 00 C0 E1 
  1223)      1247.7  Rx         024A  8  E5 FF FF FF FF FF C7 47 
  1224)      1248.0  Rx         024B  8  65 80 00 FF 00 00 C0 BC 
  1225)      1248.2  Rx         024C  8  E6 FF FF FF FF FF C7 A0 
  1226)      1248.5  Rx         024D  8  66 80 00 FF 00 00 C0 5B 
  1227)      1248.7  Rx         024E  8  E7 FF FF FF FF FF C7 FD 
  1228)      1249.0  Rx         024F  8  67 80 00 FF 00 00 C0 06 
  1229)      1259.0  Rx         0100  8  08 00 1E 01 A0 43 46 2E 
  1230)      1266.1  Rx         0050  8  00 80 00 00 00 00 80 A6 
  1231)      1266.3  Rx         0174  8  CF 7F 00 00 00 00 80 54 
  1232)      1279.0  Rx         0100  8  08 00 1E 03 A0 45 86 89 
  1233)      1286.1  Rx         0050  8  00 80 00 00 00 00 90 39 
  1234)      1286.3  Rx         0174  8  E0 7F 00 00 00 00 90 89 
  1235)      1299.0  Rx         0100  8  08 00 1E 01 A0 43 C6 08 
  1236)      1306.1  Rx         0050  8  00 80 00 00 00 00 A0 A8 
  1237)      1306.3  Rx         0174  8  E0 7F 00 00 00 00 A0 31 
  1238)      1319.0  Rx         0100  8  08 00 1E 03 A0 45 06 AF 
  1239)      1326.0  Rx         0050  8  00 80 00 00 00 00 B0 EA 
  1240)      1326.3  Rx         0174  8  E0 7F 00 00 00 00 B0 01 
  1241)      1338.8  Rx         0200  8  C0 FF FF FF FF FF 07 29 
  1242)      1339.1  Rx         0201  8  40 75 00 FF 00 00 00 5D 
  1243)      1339.3  Rx         0202  8  C1 FF FF FF FF FF 07 74 
  1244)      1339.6  Rx         0203  8  41 75 00 FF 00 00 00 00 
  1245)      1339.8  Rx         0204  8  C2 FF FF FF FF FF 07 93 
  1246)      1340.0  Rx         0205  8  42 75 00 FF 00 00 00 E7 
  1247)      1340.3  Rx         0100  8  08 00 1E 01 A0 43 46 2E 
  1248)      1340.5  Rx         0206  8  C3 FF FF FF FF FF 07 CE 
  1249)      1340.8  Rx         0207  8  43 75 00 FF 00 00 00 BA 
  1250)      1341.0  Rx         0208  8  C4 FF FF FF FF FF 07 40 
  1251)      1341.3  Rx         0209  8  44 75 00 FF 00 00 00 34 
  1252)      1341.5  Rx         020A  8  C5 FF FF FF FF FF 07 1D 
  1253)      1341.7  Rx         020B  8  45 75 00 FF 00 00 00 69 
  1254)      1342.0  Rx         020C  8  C6 FF FF FF FF FF 07 FA 
  1255)      1342.3  Rx         020D  8  46 75 00 FF 00 00 00 8E 
  1256)      1342.5  Rx         020E  8  C7 FF FF FF FF FF 07 A7 
  1257)      1342.7  Rx         020F  8  47 75 00 FF 00 00 00 D3 
  1258)      1343.0  Rx         0210  8  C8 FF FF FF FF FF 07 FB 
  1259)      1343.2  Rx         0211  8  48 75 00 FF 00 00 00 8F 
  1260)      1343.5  Rx         0212  8  C9 FF FF FF FF FF 07 A6 
  1261)      1343.7  Rx         0213  8  49 75 00 FF 00 00 00 D2 
  1262)      1344.0  Rx         0214  8  CA FF FF FF FF FF 07 41 
  1263)      1344.2  Rx         0215  8  4A 75 00 FF 00 00 00 35 
  1264)      1344.5  Rx         0216  8  CB FF FF FF FF FF 07 1C 
  1265)      1344.7  Rx         0217  8  4B 75 00 FF 00 00 00 68 
  1266)      1344.9  Rx         0218  8  CC FF FF FF FF FF 07 92 
  1267)      1345.2  Rx         0219  8  4C 75 00 FF 00 00 00 E6 
  1268)      1345.4  Rx         021A  8  CD FF FF FF FF FF 07 CF 
  1269)      1345.7  Rx         021B  8  4D 75 00 FF 00 00 00 BB 
  1270)      1345.9  Rx         021C  8  CE FF FF FF FF FF 07 28 
  1271)      1346.2  Rx         0050  8  00 80 00 00 00 00 C0 E8 
  1272)      1346.4  Rx         0174  8  E0 7F 00 00 00 00 C0 60 
  1273)      1346.6  Rx         021D  8  4E 75 00 FF 00 00 00 5C 
  1274)      1346.9  Rx         021E  8  CF FF FF FF FF FF 07 75 
  1275)      1347.1  Rx         021F  8  4F 75 00 FF 00 00 00 01 
  1276)      1347.4  Rx         0220  8  D0 FF FF FF FF FF 07 90 
  1277)      1347.6  Rx         0221  8  50 75 00 FF 00 00 00 E4 
  1278)      1347.9  Rx         0222  8  D1 FF FF FF FF FF 07 CD 
  1279)      1348.1  Rx         0223  8  51 75 00 FF 00 00 00 B9 
  1280)      1348.4  Rx         0224  8  D2 FF FF FF FF FF 07 2A 
  1281)      1348.6  Rx         0225  8  52 75 00 FF 00 00 00 5E 
  1282)      1348.8  Rx         0226  8  D3 FF FF FF FF FF 07 77 
  1283)      1349.1  Rx         0227  8  53 75 00 FF 00 00 00 03 
  1284)      1349.3  Rx         0228  8  D4 FF FF FF FF FF 07 F9 
  1285)      1349.6  Rx         0229  8  54 75 00 FF 00 00 00 8D 
  1286)      1349.8  Rx         022A  8  D5 FF FF FF FF FF 07 A4 
  1287)      1350.1  Rx         022B  8  55 75 00 FF 00 00 00 D0 
  1288)      1350.3  Rx         022C  8  D6 FF FF FF FF FF 07 43 
  1289)      1350.6  Rx         022D  8  56 75 00 FF 00 00 00 37 
  1290)      1350.8  Rx         022E  8  D7 FF FF FF FF FF 07 1E 
  1291)      1351.1  Rx         022F  8  57 75 00 FF 00 00 00 6A 
  1292)      1351.3  Rx         0230  8  D8 FF FF FF FF FF 07 42 
  1293)      1351.6  Rx         0231  8  58 75 00 FF 00 00 00 36 
  1294)      1351.8  Rx         0232  8  D9 FF FF FF FF FF 07 1F 
  1295)      1352.1  Rx         0233  8  59 75 00 FF 00 00 00 6B 
  1296)      1352.3  Rx         0234  8  DA FF FF FF FF FF 07 F8 
  1297)      1352.5  Rx         0235  8  5A 75 00 FF 00 00 00 8C 
  1298)      1352.8  Rx         0236  8  DB FF FF FF FF FF 07 A5 
  1299)      1353.0  Rx         0237  8  5B 75 00 FF 00 00 00 D1 
  1300)      1353.3  Rx         0238  8  DC FF FF FF FF FF 07 2B 
  1301)      1353.5  Rx         0239  8  5C 75 00 FF 00 00 00 5F 
  1302)      1353.8  Rx         023A  8  DD FF FF FF FF FF 07 76 
  1303)      1354.0  Rx         023B  8  5D 75 00 FF 00 00 00 02 
  1304)      1354.3  Rx         023C  8  DE FF FF FF FF FF 07 91 
  1305)      1354.5  Rx         023D  8  5E 75 00 FF 00 00 00 E5 
  1306)      1354.8  Rx         023E  8  DF FF FF FF FF FF 07 CC 
  1307)      1355.0  Rx         023F  8  5F 75 00 FF 00 00 00 B8 
  1308)      1355.3  Rx         0240  8  E0 FF FF FF FF FF 07 46 
  1309)      1355.5  Rx         0241  8  60 75 00 FF 00 00 00 32 
  1310)      1355.8  Rx         0242  8  E1 FF FF FF FF FF 07 1B 
  1311)      1356.0  Rx         0243  8  61 75 00 FF 00 00 00 6F 
  1312)      1356.2  Rx         0244  8  E2 FF FF FF FF FF 07 FC 
  1313)      1356.5  Rx         0245  8  62 75 00 FF 00 00 00 88 
  1314)      1356.8  Rx         0246  8  E3 FF FF FF FF FF 07 A1 
  1315)      1357.0  Rx         0247  8  63 75 00 FF 00 00 00 D5 
  1316)      1357.2  Rx         0248  8  E4 FF FF FF FF FF 07 2F 
  1317)      1357.5  Rx         0249  8  64 75 00 FF 00 00 00 5B 
  1318)      1357.7  Rx         024A  8  E5 FF FF FF FF FF 07 72 
  1319)      1358.0  Rx         024B  8  65 75 00 FF 00 00 00 06 
  1320)      1358.2  Rx         024C  8  E6 FF FF FF FF FF 07 95 
  1321)      1358.5  Rx         024D  8  66 75 00 FF 00 00 00 E1 
  1322)      1358.7  Rx         024E  8  E7 FF FF FF FF FF 07 C8 
  1323)      1359.0  Rx         024F  8  67 75 00 FF 00 00 00 BC 
  1324)      1359.2  Rx         0100  8  08 00 1E 03 A0 45 86 89 
  1325)      1366.1  Rx         0050  8  00 80 00 00 00 00 D0 66 
  1326)      1366.3  Rx         0174  8  E0 7F 00 00 00 00 D0 5D 
  1327)      1379.0  Rx         0100  8  08 00 1E 01 A0 43 C6 08 
  1328)      1386.0  Rx         0050  8  00 80 00 00 00 00 E0 27 
  1329)      1386.3  Rx         0174  8  E0 7F 00 00 00 00 E0 57 
  1330)      1399.0  Rx         0100  8  08 00 1E 03 A0 45 06 AF 
  1331)      1406.0  Rx         0050  8  00 80 00 00 00 00 F0 9D 
  1332)      1406.3  Rx         0174  8  E0 7F 00 00 00 00 F0 31 
  1333)      1419.0  Rx         0100  8  08 00 1E 01 A0 43 46 2E 
  1334)      1426.0  Rx         0050  8  00 80 00 00 00 00 00 C1 
  1335)      1426.3  Rx         0174  8  E0 7F 00 00 00 00 00 09 
  1336)      1428.8  Rx         0200  8  C0 FF FF FF FF FF 47 3A 
  1337)      1429.0  Rx         0201  8  40 80 00 FF 00 00 40 C1 
  1338)      1429.3  Rx         0202  8  C1 FF FF FF FF FF 47 67 
  1339)      1429.5  Rx         0203  8  41 80 00 FF 00 00 40 9C 
  1340)      1429.8  Rx         0204  8  C2 FF FF FF FF FF 47 80 
  1341)      1430.1  Rx         0205  8  42 80 00 FF 00 00 40 7B 
  1342)      1430.3  Rx         0206  8  C3 FF FF FF FF FF 47 DD 
  1343)      1430.5  Rx         0207  8  43 80 00 FF 00 00 40 26 
  1344)      1430.8  Rx         0208  8  C4 FF FF FF FF FF 47 53 
  1345)      1431.0  Rx         0209  8  44 80 00 FF 00 00 40 A8 
  1346)      1431.3  Rx         020A  8  C5 FF FF FF FF FF 47 0E 
  1347)      1431.5  Rx         020B  8  45 80 00 FF 00 00 40 F5 
  1348)      1431.8  Rx         020C  8  C6 FF FF FF FF FF 47 E9 
  1349)      1432.0  Rx         020D  8  46 80 00 FF 00 00 40 12 
  1350)      1432.3  Rx         020E  8  C7 FF FF FF FF FF 47 B4 
  1351)      1432.5  Rx         020F  8  47 80 00 FF 00 00 40 4F 
  1352)      1432.7  Rx         0210  8  C8 FF FF FF FF FF 47 E8 
  1353)      1433.0  Rx         0211  8  48 80 00 FF 00 00 40 13 
  1354)      1433.3  Rx         0212  8  C9 FF FF FF FF FF 47 B5 
  1355)      1433.5  Rx         0213  8  49 80 00 FF 00 00 40 4E 
  1356)      1433.7  Rx         0214  8  CA FF FF FF FF FF 47 52 
  1357)      1434.0  Rx         0215  8  4A 80 00 FF 00 00 40 A9 
  1358)      1434.2  Rx         0216  8  CB FF FF FF FF FF 47 0F 
  1359)      1434.5  Rx         0217  8  4B 80 00 FF 00 00 40 F4 
  1360)      1434.7  Rx         0218  8  CC FF FF FF FF FF 47 81 
  1361)      1435.0  Rx         0219  8  4C 80 00 FF 00 00 40 7A 
  1362)      1435.2  Rx         021A  8  CD FF FF FF FF FF 47 DC 
  1363)      1435.4  Rx         021B  8  4D 80 00 FF 00 00 40 27 
  1364)      1435.7  Rx         021C  8  CE FF FF FF FF FF 47 3B 
  1365)      1435.9  Rx         021D  8  4E 80 00 FF 00 00 40 C0 
  1366)      1436.2  Rx         021E  8  CF FF FF FF FF FF 47 66 
  1367)      1436.4  Rx         021F  8  4F 80 00 FF 00 00 40 9D 
  1368)      1436.7  Rx         0220  8  D0 FF FF FF FF FF 47 83 
  1369)      1436.9  Rx         0221  8  50 80 00 FF 00 00 40 78 
  1370)      1437.1  Rx         0222  8  D1 FF FF FF FF FF 47 DE 
  1371)      1437.4  Rx         0223  8  51 80 00 FF 00 00 40 25 
  1372)      1437.7  Rx         0224  8  D2 FF FF FF FF FF 47 39 
  1373)      1437.9  Rx         0225  8  52 80 00 FF 00 00 40 C2 
  1374)      1438.1  Rx         0226  8  D3 FF FF FF FF FF 47 64 
  1375)      1438.4  Rx         0227  8  53 80 00 FF 00 00 40 9F 
  1376)      1438.6  Rx         0228  8  D4 FF FF FF FF FF 47 EA 
  1377)      1438.8  Rx         0229  8  54 80 00 FF 00 00 40 11 
  1378)      1439.1  Rx         0100  8  08 00 1E 03 A0 45 86 89 
  1379)      1439.4  Rx         022A  8  D5 FF FF FF FF FF 47 B7 
  1380)      1439.6  Rx         022B  8  55 80 00 FF 00 00 40 4C 
  1381)      1439.8  Rx         022C  8  D6 FF FF FF FF FF 47 50 
  1382)      1440.1  Rx         022D  8  56 80 00 FF 00 00 40 AB 
  1383)      1440.3  Rx         022E  8  D7 FF FF FF FF FF 47 0D 
  1384)      1440.6  Rx         022F  8  57 80 00 FF 00 00 40 F6 
  1385)      1440.8  Rx         0230  8  D8 FF FF FF FF FF 47 51 
  1386)      1441.1  Rx         0231  8  58 80 00 FF 00 00 40 AA 
  1387)      1441.3  Rx         0232  8  D9 FF FF FF FF FF 47 0C 
  1388)      1441.6  Rx         0233  8  59 80 00 FF 00 00 40 F7 
  1389)      1441.8  Rx         0234  8  DA FF FF FF FF FF 47 EB 
  1390)      1442.0  Rx         0235  8  5A 80 00 FF 00 00 40 10 
  1391)      1442.3  Rx         0236  8  DB FF FF FF FF FF 47 B6 
  1392)      1442.6  Rx         0237  8  5B 80 00 FF 00 00 40 4D 
  1393)      1442.8  Rx         0238  8  DC FF FF FF FF FF 47 38 
  1394)      1443.0  Rx         0239  8  5C 80 00 FF 00 00 40 C3 
  1395)      1443.3  Rx         023A  8  DD FF FF FF FF FF 47 65 
  1396)      1443.5  Rx         023B  8  5D 80 00 FF 00 00 40 9E 
  1397)      1443.8  Rx         023C  8  DE FF FF FF FF FF 47 82 
  1398)      1444.0  Rx         023D  8  5E 80 00 FF 00 00 40 79 
  1399)      1444.3  Rx         023E  8  DF FF FF FF FF FF 47 DF 
  1400)      1444.5  Rx         023F  8  5F 80 00 FF 00 00 40 24 
  1401)      1444.8  Rx         0240  8  E0 FF FF FF FF FF 47 55 
  1402)      1445.0  Rx         0241  8  60 80 00 FF 00 00 40 AE 
  1403)      1445.3  Rx         0242  8  E1 FF FF FF FF FF 47 08 
  1404)      1445.5  Rx         0243  8  61 80 00 FF 00 00 40 F3 
  1405)      1445.8  Rx         0244  8  E2 FF FF FF FF FF 47 EF 
  1406)      1446.0  Rx         0245  8  62 80 00 FF 00 00 40 14 
  1407)      1446.3  Rx         0050  8  00 80 00 00 00 00 10 37 
  1408)      1446.5  Rx         0174  8  CF 7F 00 00 00 00 10 1F 
  1409)      1446.7  Rx         0246  8  E3 FF FF FF FF FF 47 B2 
  1410)      1447.0  Rx         0247  8  63 80 00 FF 00 00 40 49 
  1411)      1447.3  Rx         0248  8  E4 FF FF FF FF FF 47 3C 
  1412)      1447.5  Rx         0249  8  64 80 00 FF 00 00 40 C7 
  1413)      1447.7  Rx         024A  8  E5 FF FF FF FF FF 47 61 
  1414)      1448.0  Rx         024B  8  65 80 00 FF 00 00 40 9A 
  1415)      1448.2  Rx         024C  8  E6 FF FF FF FF FF 47 86 
  1416)      1448.4  Rx         024D  8  66 80 00 FF 00 00 40 7D 
  1417)      1448.7  Rx         024E  8  E7 FF FF FF FF FF 47 DB 
  1418)      1449.0  Rx         024F  8  67 80 00 FF 00 00 40 20 
  1419)      1459.0  Rx         0100  8  08 00 1E 01 A0 43 C6 08 
  1420)      1466.0  Rx         0050  8  00 80 00 00 00 00 20 C7 
  1421)      1466.3  Rx         0174  8  E0 7F 00 00 00 00 20 5D 
  1422)      1479.0  Rx         0100  8  08 00 1E 03 A0 45 06 AF 
  1423)      1486.0  Rx         0050  8  00 80 00 00 00 00 30 0C 
  1424)      1486.3  Rx         0174  8  E0 7F 00 00 00 00 30 C0 
  1425)      1499.0  Rx         0100  8  08 00 1E 01 A0 43 46 2E 
  1426)      1506.0  Rx         0050  8  00 80 00 00 00 00 40 DD 
  1427)      1506.3  Rx         0174  8  E0 7F 00 00 00 00 40 81 
  1428)      1519.0  Rx         0100  8  08 00 1E 03 A0 45 86 89 
  1429)      1526.0  Rx         0050  8  00 80 00 00 00 00 50 8C 
  1430)      1526.3  Rx         0174  8  E0 7F 00 00 00 00 50 3B 
  1431)      1538.8  Rx         0200  8  C0 FF FF FF FF FF 87 0F 
  1432)      1539.0  Rx         0201  8  C0 77 00 FF 00 00 80 56 
  1433)      1539.3  Rx         0202  8  C1 FF FF FF FF FF 87 52 
  1434)      1539.5  Rx         0203  8  C1 77 00 FF 00 00 80 0B 
  1435)      1539.8  Rx         0204  8  C2 FF FF FF FF FF 87 B5 
  1436)      1540.0  Rx         0205  8  C2 77 00 FF 00 00 80 EC 
  1437)      1540.3  Rx         0100  8  08 00 1E 01 A0 43 C6 08 
  1438)      1540.5  Rx         0206  8  C3 FF FF FF FF FF 87 E8 
  1439)      1540.7  Rx         0207  8  C3 77 00 FF 00 00 80 B1 
  1440)      1541.0  Rx         0208  8  C4 FF FF FF FF FF 87 66 
  1441)      1541.2  Rx         0209  8  C4 77 00 FF 00 00 80 3F 
  1442)      1541.5  Rx         020A  8  C5 FF FF FF FF FF 87 3B 
  1443)      1541.7  Rx         020B  8  C5 77 00 FF 00 00 80 62 
  1444)      1542.0  Rx         020C  8  C6 FF FF FF FF FF 87 DC 
  1445)      1542.2  Rx         020D  8  C6 77 00 FF 00 00 80 85 
  1446)      1542.5  Rx         020E  8  C7 FF FF FF FF FF 87 81 
  1447)      1542.7  Rx         020F  8  C7 77 00 FF 00 00 80 D8 
  1448)      1543.0  Rx         0210  8  C8 FF FF FF FF FF 87 DD 
  1449)      1543.2  Rx         0211  8  C8 77 00 FF 00 00 80 84 
  1450)      1543.4  Rx         0212  8  C9 FF FF FF FF FF 87 80 
  1451)      1543.7  Rx         0213  8  C9 77 00 FF 00 00 80 D9 
  1452)      1543.9  Rx         0214  8  CA FF FF FF FF FF 87 67 
  1453)      1544.1  Rx         0215  8  CA 77 00 FF 00 00 80 3E 
  1454)      1544.4  Rx         0216  8  CB FF FF FF FF FF 87 3A 
  1455)      1544.7  Rx         0217  8  CB 77 00 FF 00 00 80 63 
  1456)      1544.9  Rx         0218  8  CC FF FF FF FF FF 87 B4 
  1457)      1545.1  Rx         0219  8  CC 77 00 FF 00 00 80 ED 
  1458)      1545.4  Rx         021A  8  CD FF FF FF FF FF 87 E9 
  1459)      1545.6  Rx         021B  8  CD 77 00 FF 00 00 80 B0 
  1460)      1545.9  Rx         021C  8  CE FF FF FF FF FF 87 0E 
  1461)      1546.1  Rx         0050  8  00 80 00 00 00 00 60 8E 
  1462)      1546.4  Rx         0174  8  E0 7F 00 00 00 00 60 44 
  1463)      1546.6  Rx         021D  8  CE 77 00 FF 00 00 80 57 
  1464)      1546.8  Rx         021E  8  CF FF FF FF FF FF 87 53 
  1465)      1547.1  Rx         021F  8  CF 77 00 FF 00 00 80 0A 
  1466)      1547.3  Rx         0220  8  D0 FF FF FF FF FF 87 B6 
  1467)      1547.6  Rx         0221  8  D0 77 00 FF 00 00 80 EF 
  1468)      1547.8  Rx         0222  8  D1 FF FF FF FF FF 87 EB 
  1469)      1548.1  Rx         0223  8  D1 77 00 FF 00 00 80 B2 
  1470)      1548.3  Rx         0224  8  D2 FF FF FF FF FF 87 0C 
  1471)      1548.5  Rx         0225  8  D2 77 00 FF 00 00 80 55 
  1472)      1548.8  Rx         0226  8  D3 FF FF FF FF FF 87 51 
  1473)      1549.1  Rx         0227  8  D3 77 00 FF 00 00 80 08 
  1474)      1549.3  Rx         0228  8  D4 FF FF FF FF FF 87 DF 
  1475)      1549.5  Rx         0229  8  D4 77 00 FF 00 00 80 86 
  1476)      1549.8  Rx         022A  8  D5 FF FF FF FF FF 87 82 
  1477)      1550.0  Rx         022B  8  D5 77 00 FF 00 00 80 DB 
  1478)      1550.3  Rx         022C  8  D6 FF FF FF FF FF 87 65 
  1479)      1550.5  Rx         022D  8  D6 77 00 FF 00 00 80 3C 
  1480)      1550.8  Rx         022E  8  D7 FF FF FF FF FF 87 38 
  1481)      1551.0  Rx         022F  8  D7 77 00 FF 00 00 80 61 
  1482)      1551.2  Rx         0230  8  D8 FF FF FF FF FF 87 64 
  1483)      1551.5  Rx         0231  8  D8 77 00 FF 00 00 80 3D 
  1484)      1551.7  Rx         0232  8  D9 FF FF FF FF FF 87 39 
  1485)      1552.0  Rx         0233  8  D9 77 00 FF 00 00 80 60 
  1486)      1552.2  Rx         0234  8  DA FF FF FF FF FF 87 DE 
  1487)      1552.5  Rx         0235  8  DA 77 00 FF 00 00 80 87 
  1488)      1552.7  Rx         0236  8  DB FF FF FF FF FF 87 83 
  1489)      1552.9  Rx         0237  8  DB 77 00 FF 00 00 80 DA 
  1490)      1553.2  Rx         0238  8  DC FF FF FF FF FF 87 0D 
  1491)      1553.4  Rx         0239  8  DC 77 00 FF 00 00 80 54 
  1492)      1553.7  Rx         023A  8  DD FF FF FF FF FF 87 50 
  1493)      1553.9  Rx         023B  8  DD 77 00 FF 00 00 80 09 
  1494)      1554.2  Rx         023C  8  DE FF FF FF FF FF 87 B7 
  1495)      1554.4  Rx         023D  8  DE 77 00 FF 00 00 80 EE 
  1496)      1554.7  Rx         023E  8  DF FF FF FF FF FF 87 EA 
  1497)      1554.9  Rx         023F  8  DF 77 00 FF 00 00 80 B3 
  1498)      1555.2  Rx         0240  8  E0 FF FF FF FF FF 87 60 
  1499)      1555.4  Rx         0241  8  E0 77 00 FF 00 00 80 39 
  1500)      1555.7  Rx         0242  8  E1 FF FF FF FF FF 87 3D 
  1501)      1555.9  Rx         0243  8  E1 77 00 FF 00 00 80 64 
  1502)      1556.1  Rx         0244  8  E2 FF FF FF FF FF 87 DA 
  1503)      1556.4  Rx         0245  8  E2 77 00 FF 00 00 80 83 
  1504)      1556.6  Rx         0246  8  E3 FF FF FF FF FF 87 87 
  1505)      1556.9  Rx         0247  8  E3 77 00 FF 00 00 80 DE 
  1506)      1557.1  Rx         0248  8  E4 FF FF FF FF FF 87 09 
  1507)      1557.4  Rx         0249  8  E4 77 00 FF 00 00 80 50 
  1508)      1557.6  Rx         024A  8  E5 FF FF FF FF FF 87 54 
